! rf-tools.com
! Date: Thu Jan 30 2020 11:42:19 GMT+0000 (格林尼治标准时间)
# Hz S DB R 50.00
!Frequency        S11 dB       S11 Deg       S21 dB      S21 Deg      S12 dB      S12 Deg      S22 dB       S22 Deg      
600000.00000    -0.00000    179.80116    -81.27134    89.80116    -81.27134    89.80116    -0.00000    179.80116
604438.08460    -0.00000    179.79969    -81.20735    89.79969    -81.20735    89.79969    -0.00000    179.79969
608908.99685    -0.00000    179.79821    -81.14335    89.79821    -81.14335    89.79821    -0.00000    179.79821
613412.97959    -0.00000    179.79672    -81.07935    89.79672    -81.07935    89.79672    -0.00000    179.79672
617950.27742    -0.00000    179.79521    -81.01536    89.79521    -81.01536    89.79521    -0.00000    179.79521
622521.13676    -0.00000    179.79370    -80.95136    89.79370    -80.95136    89.79370    -0.00000    179.79370
627125.80588    -0.00000    179.79217    -80.88736    89.79217    -80.88736    89.79217    -0.00000    179.79217
631764.53485    -0.00000    179.79064    -80.82337    89.79064    -80.82337    89.79064    -0.00000    179.79064
636437.57560    -0.00000    179.78909    -80.75937    89.78909    -80.75937    89.78909    -0.00000    179.78909
641145.18194    -0.00000    179.78753    -80.69538    89.78753    -80.69538    89.78753    -0.00000    179.78753
645887.60953    -0.00000    179.78596    -80.63138    89.78596    -80.63138    89.78596    -0.00000    179.78596
650665.11595    -0.00000    179.78437    -80.56739    89.78437    -80.56739    89.78437    -0.00000    179.78437
655477.96067    -0.00000    179.78278    -80.50339    89.78278    -80.50339    89.78278    -0.00000    179.78278
660326.40507    -0.00000    179.78117    -80.43940    89.78117    -80.43940    89.78117    -0.00000    179.78117
665210.71248    -0.00000    179.77955    -80.37540    89.77955    -80.37540    89.77955    -0.00000    179.77955
670131.14818    -0.00000    179.77792    -80.31141    89.77792    -80.31141    89.77792    -0.00000    179.77792
675087.97939    -0.00000    179.77628    -80.24741    89.77628    -80.24741    89.77628    -0.00000    179.77628
680081.47533    -0.00000    179.77462    -80.18342    89.77462    -80.18342    89.77462    -0.00000    179.77462
685111.90720    -0.00000    179.77296    -80.11943    89.77296    -80.11943    89.77296    -0.00000    179.77296
690179.54821    -0.00000    179.77128    -80.05544    89.77128    -80.05544    89.77128    -0.00000    179.77128
695284.67358    -0.00000    179.76959    -79.99144    89.76959    -79.99144    89.76959    -0.00000    179.76959
700427.56058    -0.00000    179.76788    -79.92745    89.76788    -79.92745    89.76788    -0.00000    179.76788
705608.48853    -0.00000    179.76616    -79.86346    89.76616    -79.86346    89.76616    -0.00000    179.76616
710827.73880    -0.00000    179.76443    -79.79947    89.76443    -79.79947    89.76443    -0.00000    179.76443
716085.59487    -0.00000    179.76269    -79.73547    89.76269    -79.73547    89.76269    -0.00000    179.76269
721382.34228    -0.00000    179.76094    -79.67148    89.76094    -79.67148    89.76094    -0.00000    179.76094
726718.26872    -0.00000    179.75917    -79.60749    89.75917    -79.60749    89.75917    -0.00000    179.75917
732093.66398    -0.00000    179.75739    -79.54350    89.75739    -79.54350    89.75739    -0.00000    179.75739
737508.82000    -0.00000    179.75559    -79.47951    89.75559    -79.47951    89.75559    -0.00000    179.75559
742964.03090    -0.00000    179.75378    -79.41552    89.75378    -79.41552    89.75378    -0.00000    179.75378
748459.59293    -0.00000    179.75196    -79.35153    89.75196    -79.35153    89.75196    -0.00000    179.75196
753995.80459    -0.00000    179.75013    -79.28754    89.75013    -79.28754    89.75013    -0.00000    179.75013
759572.96653    -0.00000    179.74828    -79.22355    89.74828    -79.22355    89.74828    -0.00000    179.74828
765191.38167    -0.00000    179.74642    -79.15956    89.74642    -79.15956    89.74642    -0.00000    179.74642
770851.35515    -0.00000    179.74454    -79.09557    89.74454    -79.09557    89.74454    -0.00000    179.74454
776553.19436    -0.00000    179.74265    -79.03159    89.74265    -79.03159    89.74265    -0.00000    179.74265
782297.20898    -0.00000    179.74075    -78.96760    89.74075    -78.96760    89.74075    -0.00000    179.74075
788083.71097    -0.00000    179.73883    -78.90361    89.73883    -78.90361    89.73883    -0.00000    179.73883
793913.01460    -0.00000    179.73690    -78.83962    89.73690    -78.83962    89.73690    -0.00000    179.73690
799785.43647    -0.00000    179.73495    -78.77564    89.73495    -78.77564    89.73495    -0.00000    179.73495
805701.29552    -0.00000    179.73299    -78.71165    89.73299    -78.71165    89.73299    -0.00000    179.73299
811660.91303    -0.00000    179.73102    -78.64767    89.73102    -78.64767    89.73102    -0.00000    179.73102
817664.61270    -0.00000    179.72903    -78.58368    89.72903    -78.58368    89.72903    -0.00000    179.72903
823712.72057    -0.00000    179.72702    -78.51969    89.72702    -78.51969    89.72702    -0.00000    179.72702
829805.56513    -0.00000    179.72501    -78.45571    89.72501    -78.45571    89.72501    -0.00000    179.72501
835943.47730    -0.00000    179.72297    -78.39173    89.72297    -78.39173    89.72297    -0.00000    179.72297
842126.79042    -0.00000    179.72092    -78.32774    89.72092    -78.32774    89.72092    -0.00000    179.72092
848355.84031    -0.00000    179.71886    -78.26376    89.71886    -78.26376    89.71886    -0.00000    179.71886
854630.96529    -0.00000    179.71678    -78.19977    89.71678    -78.19977    89.71678    -0.00000    179.71678
860952.50617    -0.00000    179.71468    -78.13579    89.71468    -78.13579    89.71468    -0.00000    179.71468
867320.80626    -0.00000    179.71257    -78.07181    89.71257    -78.07181    89.71257    -0.00000    179.71257
873736.21145    -0.00000    179.71045    -78.00783    89.71045    -78.00783    89.71045    -0.00000    179.71045
880199.07015    -0.00000    179.70830    -77.94385    89.70830    -77.94385    89.70830    -0.00000    179.70830
886709.73338    -0.00000    179.70615    -77.87987    89.70615    -77.87987    89.70615    -0.00000    179.70615
893268.55473    -0.00000    179.70397    -77.81588    89.70397    -77.81588    89.70397    -0.00000    179.70397
899875.89042    -0.00000    179.70178    -77.75190    89.70178    -77.75190    89.70178    -0.00000    179.70178
906532.09931    -0.00000    179.69958    -77.68792    89.69958    -77.68792    89.69958    -0.00000    179.69958
913237.54289    -0.00000    179.69736    -77.62395    89.69736    -77.62395    89.69736    -0.00000    179.69736
919992.58534    -0.00000    179.69512    -77.55997    89.69512    -77.55997    89.69512    -0.00000    179.69512
926797.59355    -0.00000    179.69286    -77.49599    89.69286    -77.49599    89.69286    -0.00000    179.69286
933652.93709    -0.00000    179.69059    -77.43201    89.69059    -77.43201    89.69059    -0.00000    179.69059
940558.98829    -0.00000    179.68830    -77.36803    89.68830    -77.36803    89.68830    -0.00000    179.68830
947516.12222    -0.00000    179.68600    -77.30406    89.68600    -77.30406    89.68600    -0.00000    179.68600
954524.71674    -0.00000    179.68367    -77.24008    89.68367    -77.24008    89.68367    -0.00000    179.68367
961585.15248    -0.00000    179.68133    -77.17610    89.68133    -77.17610    89.68133    -0.00000    179.68133
968697.81290    -0.00000    179.67898    -77.11213    89.67898    -77.11213    89.67898    -0.00000    179.67898
975863.08431    -0.00000    179.67660    -77.04816    89.67660    -77.04816    89.67660    -0.00000    179.67660
983081.35585    -0.00000    179.67421    -76.98418    89.67421    -76.98418    89.67421    -0.00000    179.67421
990353.01955    -0.00000    179.67180    -76.92021    89.67180    -76.92021    89.67180    -0.00000    179.67180
997678.47036    -0.00000    179.66937    -76.85623    89.66937    -76.85623    89.66937    -0.00000    179.66937
1005058.10611    -0.00000    179.66693    -76.79226    89.66693    -76.79226    89.66693    -0.00000    179.66693
1012492.32762    -0.00000    179.66446    -76.72829    89.66446    -76.72829    89.66446    -0.00000    179.66446
1019981.53862    -0.00000    179.66198    -76.66432    89.66198    -76.66432    89.66198    -0.00000    179.66198
1027526.14589    -0.00000    179.65948    -76.60035    89.65948    -76.60035    89.65948    -0.00000    179.65948
1035126.55916    -0.00000    179.65696    -76.53638    89.65696    -76.53638    89.65696    -0.00000    179.65696
1042783.19122    -0.00000    179.65442    -76.47241    89.65442    -76.47241    89.65442    -0.00000    179.65442
1050496.45792    -0.00000    179.65187    -76.40844    89.65187    -76.40844    89.65187    -0.00000    179.65187
1058266.77817    -0.00000    179.64929    -76.34447    89.64929    -76.34447    89.64929    -0.00000    179.64929
1066094.57399    -0.00000    179.64670    -76.28050    89.64670    -76.28050    89.64670    -0.00000    179.64670
1073980.27050    -0.00000    179.64409    -76.21654    89.64409    -76.21654    89.64409    -0.00000    179.64409
1081924.29600    -0.00000    179.64145    -76.15257    89.64145    -76.15257    89.64145    -0.00000    179.64145
1089927.08192    -0.00000    179.63880    -76.08861    89.63880    -76.08861    89.63880    -0.00000    179.63880
1097989.06291    -0.00000    179.63613    -76.02464    89.63613    -76.02464    89.63613    -0.00000    179.63613
1106110.67683    -0.00000    179.63344    -75.96068    89.63344    -75.96068    89.63344    -0.00000    179.63344
1114292.36476    -0.00000    179.63073    -75.89671    89.63073    -75.89671    89.63073    -0.00000    179.63073
1122534.57106    -0.00000    179.62799    -75.83275    89.62799    -75.83275    89.62799    -0.00000    179.62799
1130837.74338    -0.00000    179.62524    -75.76879    89.62524    -75.76879    89.62524    -0.00000    179.62524
1139202.33267    -0.00000    179.62247    -75.70483    89.62247    -75.70483    89.62247    -0.00000    179.62247
1147628.79321    -0.00000    179.61968    -75.64087    89.61968    -75.64087    89.61968    -0.00000    179.61968
1156117.58266    -0.00000    179.61687    -75.57691    89.61687    -75.57691    89.61687    -0.00000    179.61687
1164669.16206    -0.00000    179.61403    -75.51295    89.61403    -75.51295    89.61403    -0.00000    179.61403
1173283.99584    -0.00000    179.61118    -75.44899    89.61118    -75.44899    89.61118    -0.00000    179.61118
1181962.55189    -0.00000    179.60830    -75.38503    89.60830    -75.38503    89.60830    -0.00000    179.60830
1190705.30156    -0.00000    179.60540    -75.32108    89.60540    -75.32108    89.60540    -0.00000    179.60540
1199512.71965    -0.00000    179.60248    -75.25712    89.60248    -75.25712    89.60248    -0.00000    179.60248
1208385.28453    -0.00000    179.59954    -75.19317    89.59954    -75.19317    89.59954    -0.00000    179.59954
1217323.47806    -0.00000    179.59658    -75.12921    89.59658    -75.12921    89.59658    -0.00000    179.59658
1226327.78570    -0.00000    179.59360    -75.06526    89.59360    -75.06526    89.59360    -0.00000    179.59360
1235398.69646    -0.00000    179.59059    -75.00131    89.59059    -75.00131    89.59059    -0.00000    179.59059
1244536.70301    -0.00000    179.58756    -74.93735    89.58756    -74.93735    89.58756    -0.00000    179.58756
1253742.30163    -0.00000    179.58451    -74.87340    89.58451    -74.87340    89.58451    -0.00000    179.58451
1263015.99229    -0.00000    179.58144    -74.80945    89.58144    -74.80945    89.58144    -0.00000    179.58144
1272358.27866    -0.00000    179.57834    -74.74550    89.57834    -74.74550    89.57834    -0.00000    179.57834
1281769.66813    -0.00000    179.57522    -74.68156    89.57522    -74.68156    89.57522    -0.00000    179.57522
1291250.67183    -0.00000    179.57208    -74.61761    89.57208    -74.61761    89.57208    -0.00000    179.57208
1300801.80470    -0.00000    179.56892    -74.55366    89.56892    -74.55366    89.56892    -0.00000    179.56892
1310423.58546    -0.00000    179.56573    -74.48972    89.56573    -74.48972    89.56573    -0.00000    179.56573
1320116.53668    -0.00000    179.56252    -74.42577    89.56252    -74.42577    89.56252    -0.00000    179.56252
1329881.18479    -0.00000    179.55928    -74.36183    89.55928    -74.36183    89.55928    -0.00000    179.55928
1339718.06013    -0.00000    179.55602    -74.29789    89.55602    -74.29789    89.55602    -0.00000    179.55602
1349627.69694    -0.00000    179.55274    -74.23395    89.55274    -74.23395    89.55274    -0.00000    179.55274
1359610.63344    -0.00000    179.54943    -74.17001    89.54943    -74.17001    89.54943    -0.00000    179.54943
1369667.41179    -0.00000    179.54609    -74.10607    89.54609    -74.10607    89.54609    -0.00000    179.54609
1379798.57820    -0.00000    179.54274    -74.04213    89.54274    -74.04213    89.54274    -0.00000    179.54274
1390004.68289    -0.00000    179.53935    -73.97819    89.53935    -73.97819    89.53935    -0.00000    179.53935
1400286.28018    -0.00000    179.53595    -73.91426    89.53595    -73.91426    89.53595    -0.00000    179.53595
1410643.92847    -0.00000    179.53251    -73.85032    89.53251    -73.85032    89.53251    -0.00000    179.53251
1421078.19029    -0.00000    179.52906    -73.78639    89.52906    -73.78639    89.52906    -0.00000    179.52906
1431589.63234    -0.00000    179.52557    -73.72246    89.52557    -73.72246    89.52557    -0.00000    179.52557
1442178.82550    -0.00000    179.52206    -73.65853    89.52206    -73.65853    89.52206    -0.00000    179.52206
1452846.34489    -0.00000    179.51853    -73.59460    89.51853    -73.59460    89.51853    -0.00000    179.51853
1463592.76987    -0.00000    179.51497    -73.53067    89.51497    -73.53067    89.51497    -0.00000    179.51497
1474418.68409    -0.00000    179.51138    -73.46674    89.51138    -73.46674    89.51138    -0.00000    179.51138
1485324.67551    -0.00000    179.50776    -73.40282    89.50776    -73.40282    89.50776    -0.00000    179.50776
1496311.33645    -0.00000    179.50412    -73.33889    89.50412    -73.33889    89.50412    -0.00000    179.50412
1507379.26361    -0.00000    179.50046    -73.27497    89.50046    -73.27497    89.50046    -0.00000    179.50046
1518529.05810    -0.00000    179.49676    -73.21104    89.49676    -73.21104    89.49676    -0.00000    179.49676
1529761.32547    -0.00000    179.49304    -73.14712    89.49304    -73.14712    89.49304    -0.00000    179.49304
1541076.67577    -0.00000    179.48929    -73.08320    89.48929    -73.08320    89.48929    -0.00000    179.48929
1552475.72354    -0.00000    179.48551    -73.01929    89.48551    -73.01929    89.48551    -0.00000    179.48551
1563959.08787    -0.00000    179.48170    -72.95537    89.48170    -72.95537    89.48170    -0.00000    179.48170
1575527.39243    -0.00000    179.47787    -72.89145    89.47787    -72.89145    89.47787    -0.00000    179.47787
1587181.26552    -0.00000    179.47401    -72.82754    89.47401    -72.82754    89.47401    -0.00000    179.47401
1598921.34007    -0.00000    179.47012    -72.76363    89.47012    -72.76363    89.47012    -0.00000    179.47012
1610748.25369    -0.00000    179.46620    -72.69972    89.46620    -72.69972    89.46620    -0.00000    179.46620
1622662.64872    -0.00000    179.46225    -72.63581    89.46225    -72.63581    89.46225    -0.00000    179.46225
1634665.17223    -0.00000    179.45827    -72.57190    89.45827    -72.57190    89.45827    -0.00000    179.45827
1646756.47611    -0.00000    179.45426    -72.50799    89.45426    -72.50799    89.45426    -0.00000    179.45426
1658937.21703    -0.00000    179.45023    -72.44409    89.45023    -72.44409    89.45023    -0.00000    179.45023
1671208.05655    -0.00000    179.44616    -72.38018    89.44616    -72.38018    89.44616    -0.00000    179.44616
1683569.66111    -0.00000    179.44206    -72.31628    89.44206    -72.31628    89.44206    -0.00000    179.44206
1696022.70208    -0.00000    179.43794    -72.25238    89.43794    -72.25238    89.43794    -0.00000    179.43794
1708567.85580    -0.00000    179.43378    -72.18848    89.43378    -72.18848    89.43378    -0.00000    179.43378
1721205.80361    -0.00000    179.42959    -72.12458    89.42959    -72.12458    89.42959    -0.00000    179.42959
1733937.23189    -0.00000    179.42537    -72.06069    89.42537    -72.06069    89.42537    -0.00000    179.42537
1746762.83209    -0.00000    179.42112    -71.99680    89.42112    -71.99680    89.42112    -0.00000    179.42112
1759683.30080    -0.00000    179.41684    -71.93290    89.41684    -71.93290    89.41684    -0.00000    179.41684
1772699.33972    -0.00000    179.41253    -71.86901    89.41253    -71.86901    89.41253    -0.00000    179.41253
1785811.65578    -0.00000    179.40818    -71.80513    89.40818    -71.80513    89.40818    -0.00000    179.40818
1799020.96112    -0.00000    179.40380    -71.74124    89.40380    -71.74124    89.40380    -0.00000    179.40380
1812327.97316    -0.00000    179.39939    -71.67736    89.39939    -71.67736    89.39939    -0.00000    179.39939
1825733.41460    -0.00000    179.39495    -71.61347    89.39495    -71.61347    89.39495    -0.00000    179.39495
1839238.01351    -0.00000    179.39047    -71.54959    89.39047    -71.54959    89.39047    -0.00000    179.39047
1852842.50334    -0.00000    179.38596    -71.48571    89.38596    -71.48571    89.38596    -0.00000    179.38596
1866547.62297    -0.00000    179.38142    -71.42184    89.38142    -71.42184    89.38142    -0.00000    179.38142
1880354.11673    -0.00000    179.37685    -71.35796    89.37685    -71.35796    89.37685    -0.00000    179.37685
1894262.73447    -0.00000    179.37224    -71.29409    89.37224    -71.29409    89.37224    -0.00000    179.37224
1908274.23158    -0.00000    179.36759    -71.23022    89.36759    -71.23022    89.36759    -0.00000    179.36759
1922389.36904    -0.00000    179.36292    -71.16635    89.36292    -71.16635    89.36292    -0.00000    179.36292
1936608.91346    -0.00000    179.35820    -71.10248    89.35820    -71.10248    89.35820    -0.00000    179.35820
1950933.63711    -0.00000    179.35346    -71.03862    89.35346    -71.03862    89.35346    -0.00000    179.35346
1965364.31799    -0.00000    179.34867    -70.97476    89.34867    -70.97476    89.34867    -0.00000    179.34867
1979901.73984    -0.00000    179.34386    -70.91090    89.34386    -70.91090    89.34386    -0.00000    179.34386
1994546.69220    -0.00000    179.33900    -70.84704    89.33900    -70.84704    89.33900    -0.00000    179.33900
2009299.97046    -0.00000    179.33411    -70.78318    89.33411    -70.78318    89.33411    -0.00000    179.33411
2024162.37588    -0.00000    179.32919    -70.71933    89.32919    -70.71933    89.32919    -0.00000    179.32919
2039134.71565    -0.00000    179.32422    -70.65548    89.32422    -70.65548    89.32422    -0.00000    179.32422
2054217.80295    -0.00000    179.31923    -70.59163    89.31923    -70.59163    89.31923    -0.00000    179.31923
2069412.45693    -0.00000    179.31419    -70.52779    89.31419    -70.52779    89.31419    -0.00000    179.31419
2084719.50285    -0.00000    179.30912    -70.46394    89.30912    -70.46394    89.30912    -0.00000    179.30912
2100139.77205    -0.00000    179.30401    -70.40010    89.30401    -70.40010    89.30401    -0.00000    179.30401
2115674.10201    -0.00000    179.29886    -70.33626    89.29886    -70.33626    89.29886    -0.00000    179.29886
2131323.33642    -0.00000    179.29367    -70.27243    89.29367    -70.27243    89.29367    -0.00000    179.29367
2147088.32521    -0.00000    179.28845    -70.20859    89.28845    -70.20859    89.28845    -0.00000    179.28845
