! rf-tools.com
! Date: Thu Jan 30 2020 11:20:12 GMT+0000 (格林尼治标准时间)
# Hz S DB R 50.00
!Frequency        S11 dB       S11 Deg       S21 dB      S21 Deg      S12 dB      S12 Deg      S22 dB       S22 Deg      
347119048.27170    -0.00000    175.98852    -200.45687    87.83943    -200.45687    87.83943    0.00000    179.69034
347706202.20489    -0.00000    175.98125    -200.37828    87.83552    -200.37828    87.83552    0.00000    179.68978
348294349.31245    -0.00000    175.97397    -200.29967    87.83159    -200.29967    87.83159    0.00000    179.68922
348883491.27433    0.00000    175.96668    -200.22105    87.82767    -200.22105    87.82767    0.00000    179.68865
349473629.77335    -0.00000    175.95937    -200.14240    87.82373    -200.14240    87.82373    0.00000    179.68809
350064766.49514    -0.00000    175.95204    -200.06374    87.81978    -200.06374    87.81978    0.00000    179.68752
350656903.12821    0.00000    175.94470    -199.98506    87.81583    -199.98506    87.81583    -0.00000    179.68696
351250041.36392    0.00000    175.93734    -199.90636    87.81187    -199.90636    87.81187    0.00000    179.68639
351844182.89648    0.00000    175.92997    -199.82764    87.80790    -199.82764    87.80790    -0.00000    179.68582
352439329.42297    0.00000    175.92259    -199.74890    87.80392    -199.74890    87.80392    -0.00000    179.68525
353035482.64334    -0.00000    175.91519    -199.67015    87.79993    -199.67015    87.79993    -0.00000    179.68468
353632644.26044    -0.00000    175.90777    -199.59137    87.79594    -199.59137    87.79594    0.00000    179.68411
354230815.97995    -0.00000    175.90034    -199.51258    87.79194    -199.51258    87.79194    -0.00000    179.68353
354829999.51049    0.00000    175.89289    -199.43377    87.78792    -199.43377    87.78792    0.00000    179.68296
355430196.56353    0.00000    175.88543    -199.35494    87.78391    -199.35494    87.78391    0.00000    179.68238
356031408.85345    0.00000    175.87795    -199.27609    87.77988    -199.27609    87.77988    -0.00000    179.68181
356633638.09753    -0.00000    175.87046    -199.19722    87.77584    -199.19722    87.77584    -0.00000    179.68123
357236886.01596    -0.00000    175.86295    -199.11833    87.77180    -199.11833    87.77180    0.00000    179.68065
357841154.33182    0.00000    175.85543    -199.03942    87.76775    -199.03942    87.76775    0.00000    179.68007
358446444.77114    0.00000    175.84789    -198.96050    87.76369    -198.96050    87.76369    -0.00000    179.67948
359052759.06283    -0.00000    175.84033    -198.88155    87.75962    -198.88155    87.75962    0.00000    179.67890
359660098.93875    0.00000    175.83276    -198.80258    87.75554    -198.80258    87.75554    0.00000    179.67832
360268466.13368    0.00000    175.82517    -198.72360    87.75145    -198.72360    87.75145    0.00000    179.67773
360877862.38533    0.00000    175.81757    -198.64459    87.74736    -198.64459    87.74736    0.00000    179.67714
361488289.43437    0.00000    175.80996    -198.56557    87.74326    -198.56557    87.74326    0.00000    179.67656
362099749.02438    0.00000    175.80232    -198.48652    87.73914    -198.48652    87.73914    -0.00000    179.67597
362712242.90193    0.00000    175.79467    -198.40746    87.73502    -198.40746    87.73502    0.00000    179.67538
363325772.81651    0.00000    175.78701    -198.32837    87.73090    -198.32837    87.73090    0.00000    179.67478
363940340.52059    -0.00000    175.77933    -198.24927    87.72676    -198.24927    87.72676    -0.00000    179.67419
364555947.76959    0.00000    175.77163    -198.17015    87.72261    -198.17015    87.72261    -0.00000    179.67360
365172596.32192    0.00000    175.76392    -198.09100    87.71846    -198.09100    87.71846    0.00000    179.67300
365790287.93893    0.00000    175.75619    -198.01184    87.71430    -198.01184    87.71430    -0.00000    179.67241
366409024.38499    -0.00000    175.74844    -197.93265    87.71012    -197.93265    87.71012    -0.00000    179.67181
367028807.42742    0.00000    175.74068    -197.85345    87.70594    -197.85345    87.70594    0.00000    179.67121
367649638.83655    -0.00000    175.73290    -197.77422    87.70176    -197.77422    87.70176    0.00000    179.67061
368271520.38570    0.00000    175.72511    -197.69497    87.69756    -197.69497    87.69756    0.00000    179.67001
368894453.85118    -0.00000    175.71730    -197.61571    87.69335    -197.61571    87.69335    -0.00000    179.66940
369518441.01233    0.00000    175.70947    -197.53642    87.68914    -197.53642    87.68914    -0.00000    179.66880
370143483.65147    0.00000    175.70163    -197.45711    87.68491    -197.45711    87.68491    0.00000    179.66819
370769583.55394    0.00000    175.69377    -197.37778    87.68068    -197.37778    87.68068    -0.00000    179.66759
371396742.50812    -0.00000    175.68590    -197.29843    87.67644    -197.29843    87.67644    0.00000    179.66698
372024962.30540    0.00000    175.67800    -197.21906    87.67219    -197.21906    87.67219    0.00000    179.66637
372654244.74020    -0.00000    175.67009    -197.13967    87.66793    -197.13967    87.66793    -0.00000    179.66576
373284591.60998    0.00000    175.66217    -197.06025    87.66366    -197.06025    87.66366    0.00000    179.66515
373916004.71524    0.00000    175.65423    -196.98082    87.65938    -196.98082    87.65938    0.00000    179.66454
374548485.85952    -0.00000    175.64627    -196.90136    87.65510    -196.90136    87.65510    0.00000    179.66392
375182036.84941    -0.00000    175.63829    -196.82189    87.65080    -196.82189    87.65080    0.00000    179.66331
375816659.49456    0.00000    175.63030    -196.74239    87.64650    -196.74239    87.64650    0.00000    179.66269
376452355.60769    -0.00000    175.62229    -196.66287    87.64218    -196.66287    87.64218    0.00000    179.66207
377089127.00458    0.00000    175.61427    -196.58333    87.63786    -196.58333    87.63786    -0.00000    179.66145
377726975.50407    0.00000    175.60623    -196.50376    87.63353    -196.50376    87.63353    0.00000    179.66083
378365902.92808    0.00000    175.59817    -196.42418    87.62919    -196.42418    87.62919    -0.00000    179.66021
379005911.10163    0.00000    175.59009    -196.34457    87.62484    -196.34457    87.62484    0.00000    179.65958
379647001.85281    0.00000    175.58200    -196.26494    87.62048    -196.26494    87.62048    0.00000    179.65896
380289177.01281    0.00000    175.57389    -196.18529    87.61611    -196.18529    87.61611    0.00000    179.65833
380932438.41590    0.00000    175.56576    -196.10562    87.61173    -196.10562    87.61173    0.00000    179.65771
381576787.89949    0.00000    175.55761    -196.02592    87.60734    -196.02592    87.60734    -0.00000    179.65708
382222227.30405    0.00000    175.54945    -195.94621    87.60295    -195.94621    87.60295    0.00000    179.65645
382868758.47320    -0.00000    175.54127    -195.86647    87.59854    -195.86647    87.59854    -0.00000    179.65582
383516383.25367    0.00000    175.53307    -195.78670    87.59413    -195.78670    87.59413    -0.00000    179.65518
384165103.49530    -0.00000    175.52486    -195.70692    87.58970    -195.70692    87.58970    0.00000    179.65455
384814921.05108    -0.00000    175.51663    -195.62711    87.58527    -195.62711    87.58527    -0.00000    179.65391
385465837.77711    -0.00000    175.50838    -195.54728    87.58083    -195.54728    87.58083    0.00000    179.65328
386117855.53266    -0.00000    175.50011    -195.46743    87.57638    -195.46743    87.57638    0.00000    179.65264
386770976.18011    0.00000    175.49183    -195.38755    87.57191    -195.38755    87.57191    0.00000    179.65200
387425201.58502    -0.00000    175.48353    -195.30766    87.56744    -195.30766    87.56744    0.00000    179.65136
388080533.61609    -0.00000    175.47521    -195.22774    87.56296    -195.22774    87.56296    0.00000    179.65072
388736974.14519    0.00000    175.46687    -195.14779    87.55847    -195.14779    87.55847    0.00000    179.65007
389394525.04734    -0.00000    175.45851    -195.06782    87.55397    -195.06782    87.55397    -0.00000    179.64943
390053188.20075    0.00000    175.45014    -194.98783    87.54946    -194.98783    87.54946    0.00000    179.64878
390712965.48680    0.00000    175.44175    -194.90782    87.54494    -194.90782    87.54494    0.00000    179.64813
391373858.79005    -0.00000    175.43334    -194.82778    87.54041    -194.82778    87.54041    -0.00000    179.64748
392035869.99825    -0.00000    175.42492    -194.74772    87.53587    -194.74772    87.53587    -0.00000    179.64683
392699001.00235    -0.00000    175.41647    -194.66764    87.53133    -194.66764    87.53133    -0.00000    179.64618
393363253.69648    -0.00000    175.40801    -194.58753    87.52677    -194.58753    87.52677    0.00000    179.64553
394028629.97799    0.00000    175.39953    -194.50740    87.52220    -194.50740    87.52220    -0.00000    179.64487
394695131.74743    0.00000    175.39103    -194.42724    87.51762    -194.42724    87.51762    -0.00000    179.64422
395362760.90858    0.00000    175.38251    -194.34706    87.51304    -194.34706    87.51304    0.00000    179.64356
396031519.36842    0.00000    175.37397    -194.26686    87.50844    -194.26686    87.50844    -0.00000    179.64290
396701409.03717    0.00000    175.36542    -194.18663    87.50383    -194.18663    87.50383    -0.00000    179.64224
397372431.82828    0.00000    175.35685    -194.10638    87.49921    -194.10638    87.49921    -0.00000    179.64158
398044589.65843    -0.00000    175.34826    -194.02610    87.49459    -194.02610    87.49459    0.00000    179.64092
398717884.44754    0.00000    175.33965    -193.94580    87.48995    -193.94580    87.48995    0.00000    179.64025
399392318.11879    0.00000    175.33102    -193.86548    87.48530    -193.86548    87.48530    0.00000    179.63959
400067892.59860    0.00000    175.32237    -193.78513    87.48065    -193.78513    87.48065    -0.00000    179.63892
400744609.81666    -0.00000    175.31371    -193.70475    87.47598    -193.70475    87.47598    0.00000    179.63825
401422471.70591    0.00000    175.30502    -193.62435    87.47130    -193.62435    87.47130    0.00000    179.63758
402101480.20259    -0.00000    175.29632    -193.54393    87.46661    -193.54393    87.46661    0.00000    179.63691
402781637.24616    0.00000    175.28760    -193.46348    87.46192    -193.46348    87.46192    -0.00000    179.63623
403462944.77943    -0.00000    175.27886    -193.38301    87.45721    -193.38301    87.45721    0.00000    179.63556
404145404.74843    -0.00000    175.27010    -193.30251    87.45249    -193.30251    87.45249    0.00000    179.63488
404829019.10252    0.00000    175.26132    -193.22198    87.44776    -193.22198    87.44776    0.00000    179.63421
405513789.79436    0.00000    175.25252    -193.14143    87.44302    -193.14143    87.44302    0.00000    179.63353
406199718.77989    -0.00000    175.24371    -193.06086    87.43828    -193.06086    87.43828    0.00000    179.63285
406886808.01838    -0.00000    175.23487    -192.98026    87.43352    -192.98026    87.43352    0.00000    179.63216
407575059.47240    -0.00000    175.22601    -192.89963    87.42875    -192.89963    87.42875    0.00000    179.63148
408264475.10785    0.00000    175.21714    -192.81898    87.42397    -192.81898    87.42397    0.00000    179.63080
408955056.89393    0.00000    175.20825    -192.73831    87.41918    -192.73831    87.41918    0.00000    179.63011
409646806.80322    0.00000    175.19933    -192.65760    87.41438    -192.65760    87.41438    0.00000    179.62942
410339726.81159    -0.00000    175.19040    -192.57687    87.40957    -192.57687    87.40957    -0.00000    179.62873
411033818.89827    0.00000    175.18145    -192.49612    87.40474    -192.49612    87.40474    0.00000    179.62804
411729085.04584    -0.00000    175.17248    -192.41534    87.39991    -192.41534    87.39991    -0.00000    179.62735
412425527.24023    0.00000    175.16348    -192.33453    87.39507    -192.33453    87.39507    0.00000    179.62665
413123147.47073    0.00000    175.15447    -192.25369    87.39022    -192.25369    87.39022    0.00000    179.62596
413821947.73000    -0.00000    175.14544    -192.17283    87.38535    -192.17283    87.38535    -0.00000    179.62526
414521930.01406    0.00000    175.13639    -192.09195    87.38048    -192.09195    87.38048    0.00000    179.62456
415223096.32231    0.00000    175.12732    -192.01103    87.37559    -192.01103    87.37559    0.00000    179.62386
415925448.65754    0.00000    175.11823    -191.93009    87.37070    -191.93009    87.37070    0.00000    179.62316
416628989.02592    0.00000    175.10912    -191.84913    87.36579    -191.84913    87.36579    -0.00000    179.62246
417333719.43701    0.00000    175.09999    -191.76813    87.36087    -191.76813    87.36087    0.00000    179.62175
418039641.90379    0.00000    175.09084    -191.68711    87.35594    -191.68711    87.35594    0.00000    179.62105
418746758.44261    -0.00000    175.08167    -191.60606    87.35100    -191.60606    87.35100    0.00000    179.62034
419455071.07326    0.00000    175.07248    -191.52499    87.34605    -191.52499    87.34605    -0.00000    179.61963
420164581.81893    0.00000    175.06327    -191.44388    87.34109    -191.44388    87.34109    -0.00000    179.61892
420875292.70625    0.00000    175.05404    -191.36275    87.33612    -191.36275    87.33612    -0.00000    179.61820
421587205.76526    -0.00000    175.04478    -191.28159    87.33114    -191.28159    87.33114    0.00000    179.61749
422300323.02943    -0.00000    175.03551    -191.20041    87.32614    -191.20041    87.32614    0.00000    179.61677
423014646.53570    -0.00000    175.02622    -191.11920    87.32114    -191.11920    87.32114    -0.00000    179.61606
423730178.32443    -0.00000    175.01691    -191.03795    87.31612    -191.03795    87.31612    -0.00000    179.61534
424446920.43942    -0.00000    175.00757    -190.95669    87.31109    -190.95669    87.31109    0.00000    179.61462
425164874.92797    -0.00000    174.99822    -190.87539    87.30606    -190.87539    87.30606    0.00000    179.61390
425884043.84080    0.00000    174.98884    -190.79406    87.30101    -190.79406    87.30101    -0.00000    179.61317
426604429.23212    -0.00000    174.97944    -190.71271    87.29595    -190.71271    87.29595    0.00000    179.61245
427326033.15961    -0.00000    174.97003    -190.63133    87.29087    -190.63133    87.29087    0.00000    179.61172
428048857.68443    0.00000    174.96059    -190.54992    87.28579    -190.54992    87.28579    0.00000    179.61099
428772904.87123    -0.00000    174.95113    -190.46848    87.28069    -190.46848    87.28069    0.00000    179.61026
429498176.78815    -0.00000    174.94165    -190.38701    87.27559    -190.38701    87.27559    0.00000    179.60953
430224675.50683    -0.00000    174.93215    -190.30551    87.27047    -190.30551    87.27047    0.00000    179.60880
430952403.10242    -0.00000    174.92262    -190.22399    87.26534    -190.22399    87.26534    -0.00000    179.60806
431681361.65355    0.00000    174.91308    -190.14243    87.26020    -190.14243    87.26020    0.00000    179.60732
432411553.24240    -0.00000    174.90351    -190.06085    87.25505    -190.06085    87.25505    -0.00000    179.60659
433142979.95467    0.00000    174.89393    -189.97923    87.24989    -189.97923    87.24989    -0.00000    179.60585
433875643.87957    -0.00000    174.88432    -189.89759    87.24471    -189.89759    87.24471    0.00000    179.60510
434609547.10985    -0.00000    174.87469    -189.81592    87.23952    -189.81592    87.23952    0.00000    179.60436
435344691.74181    0.00000    174.86504    -189.73422    87.23433    -189.73422    87.23433    0.00000    179.60361
436081079.87528    -0.00000    174.85536    -189.65249    87.22912    -189.65249    87.22912    0.00000    179.60287
436818713.61366    0.00000    174.84567    -189.57072    87.22389    -189.57072    87.22389    -0.00000    179.60212
437557595.06388    0.00000    174.83595    -189.48893    87.21866    -189.48893    87.21866    -0.00000    179.60137
438297726.33648    0.00000    174.82621    -189.40711    87.21341    -189.40711    87.21341    0.00000    179.60062
439039109.54552    -0.00000    174.81645    -189.32526    87.20816    -189.32526    87.20816    0.00000    179.59986
439781746.80866    0.00000    174.80667    -189.24338    87.20289    -189.24338    87.20289    -0.00000    179.59911
440525640.24715    0.00000    174.79686    -189.16147    87.19761    -189.16147    87.19761    -0.00000    179.59835
441270791.98581    0.00000    174.78703    -189.07952    87.19231    -189.07952    87.19231    0.00000    179.59759
442017204.15307    -0.00000    174.77718    -188.99755    87.18701    -188.99755    87.18701    0.00000    179.59683
442764878.88094    0.00000    174.76731    -188.91555    87.18169    -188.91555    87.18169    -0.00000    179.59607
443513818.30506    0.00000    174.75742    -188.83351    87.17636    -188.83351    87.17636    0.00000    179.59531
444264024.56466    -0.00000    174.74750    -188.75145    87.17102    -188.75145    87.17102    0.00000    179.59454
445015499.80261    0.00000    174.73756    -188.66935    87.16567    -188.66935    87.16567    0.00000    179.59377
445768246.16540    0.00000    174.72760    -188.58722    87.16030    -188.58722    87.16030    -0.00000    179.59301
446522265.80313    0.00000    174.71762    -188.50506    87.15493    -188.50506    87.15493    -0.00000    179.59224
447277560.86956    -0.00000    174.70761    -188.42287    87.14954    -188.42287    87.14954    0.00000    179.59146
448034133.52208    0.00000    174.69758    -188.34065    87.14413    -188.34065    87.14413    -0.00000    179.59069
448791985.92174    0.00000    174.68753    -188.25839    87.13872    -188.25839    87.13872    0.00000    179.58991
449551120.23324    0.00000    174.67745    -188.17611    87.13329    -188.17611    87.13329    0.00000    179.58913
450311538.62494    0.00000    174.66735    -188.09379    87.12785    -188.09379    87.12785    -0.00000    179.58836
451073243.26886    -0.00000    174.65723    -188.01144    87.12240    -188.01144    87.12240    0.00000    179.58757
451836236.34072    -0.00000    174.64708    -187.92906    87.11694    -187.92906    87.11694    -0.00000    179.58679
452600520.01990    0.00000    174.63692    -187.84665    87.11146    -187.84665    87.11146    0.00000    179.58601
453366096.48946    -0.00000    174.62672    -187.76420    87.10597    -187.76420    87.10597    0.00000    179.58522
454132967.93617    0.00000    174.61651    -187.68172    87.10047    -187.68172    87.10047    0.00000    179.58443
454901136.55049    0.00000    174.60627    -187.59921    87.09496    -187.59921    87.09496    -0.00000    179.58364
455670604.52658    0.00000    174.59601    -187.51666    87.08943    -187.51666    87.08943    0.00000    179.58285
456441374.06233    0.00000    174.58572    -187.43409    87.08389    -187.43409    87.08389    0.00000    179.58205
457213447.35933    0.00000    174.57541    -187.35148    87.07834    -187.35148    87.07834    0.00000    179.58126
457986826.62291    0.00000    174.56508    -187.26883    87.07277    -187.26883    87.07277    -0.00000    179.58046
458761514.06210    -0.00000    174.55472    -187.18616    87.06719    -187.18616    87.06719    0.00000    179.57966
459537511.88970    0.00000    174.54434    -187.10344    87.06160    -187.10344    87.06160    0.00000    179.57886
460314822.32223    0.00000    174.53394    -187.02070    87.05600    -187.02070    87.05600    0.00000    179.57806
461093447.57999    0.00000    174.52351    -186.93792    87.05038    -186.93792    87.05038    -0.00000    179.57725
