! rf-tools.com
! Date: Thu Jan 30 2020 11:11:20 GMT+0000 (格林尼治标准时间)
# Hz S DB R 50.00
!Frequency        S11 dB       S11 Deg       S21 dB      S21 Deg      S12 dB      S12 Deg      S22 dB       S22 Deg      
347119048.27170    -0.00000    179.30073    -132.87046    -90.69927    -132.87046    -90.69927    -0.00000    179.30073
347706202.20489    -0.00000    179.29946    -132.82330    -90.70054    -132.82330    -90.70054    -0.00000    179.29946
348294349.31245    -0.00000    179.29819    -132.77614    -90.70181    -132.77614    -90.70181    -0.00000    179.29819
348883491.27433    -0.00000    179.29692    -132.72896    -90.70308    -132.72896    -90.70308    -0.00000    179.29692
349473629.77335    -0.00000    179.29564    -132.68178    -90.70436    -132.68178    -90.70436    -0.00000    179.29564
350064766.49514    -0.00000    179.29437    -132.63458    -90.70563    -132.63458    -90.70563    -0.00000    179.29437
350656903.12821    -0.00000    179.29309    -132.58737    -90.70691    -132.58737    -90.70691    -0.00000    179.29309
351250041.36392    -0.00000    179.29180    -132.54015    -90.70820    -132.54015    -90.70820    -0.00000    179.29180
351844182.89648    -0.00000    179.29052    -132.49292    -90.70948    -132.49292    -90.70948    -0.00000    179.29052
352439329.42297    -0.00000    179.28923    -132.44567    -90.71077    -132.44567    -90.71077    -0.00000    179.28923
353035482.64334    -0.00000    179.28794    -132.39842    -90.71206    -132.39842    -90.71206    -0.00000    179.28794
353632644.26044    -0.00000    179.28665    -132.35115    -90.71335    -132.35115    -90.71335    -0.00000    179.28665
354230815.97995    -0.00000    179.28535    -132.30388    -90.71465    -132.30388    -90.71465    -0.00000    179.28535
354829999.51049    -0.00000    179.28406    -132.25659    -90.71594    -132.25659    -90.71594    -0.00000    179.28406
355430196.56353    -0.00000    179.28276    -132.20929    -90.71724    -132.20929    -90.71724    -0.00000    179.28276
356031408.85345    -0.00000    179.28145    -132.16198    -90.71855    -132.16198    -90.71855    -0.00000    179.28145
356633638.09753    -0.00000    179.28015    -132.11466    -90.71985    -132.11466    -90.71985    -0.00000    179.28015
357236886.01596    -0.00000    179.27884    -132.06732    -90.72116    -132.06732    -90.72116    -0.00000    179.27884
357841154.33182    -0.00000    179.27753    -132.01998    -90.72247    -132.01998    -90.72247    -0.00000    179.27753
358446444.77114    -0.00000    179.27621    -131.97262    -90.72379    -131.97262    -90.72379    -0.00000    179.27621
359052759.06283    -0.00000    179.27489    -131.92525    -90.72511    -131.92525    -90.72511    -0.00000    179.27489
359660098.93875    -0.00000    179.27357    -131.87787    -90.72643    -131.87787    -90.72643    -0.00000    179.27357
360268466.13368    -0.00000    179.27225    -131.83048    -90.72775    -131.83048    -90.72775    -0.00000    179.27225
360877862.38533    -0.00000    179.27093    -131.78307    -90.72907    -131.78307    -90.72907    -0.00000    179.27093
361488289.43437    -0.00000    179.26960    -131.73566    -90.73040    -131.73566    -90.73040    -0.00000    179.26960
362099749.02438    -0.00000    179.26827    -131.68823    -90.73173    -131.68823    -90.73173    -0.00000    179.26827
362712242.90193    -0.00000    179.26694    -131.64079    -90.73306    -131.64079    -90.73306    -0.00000    179.26694
363325772.81651    -0.00000    179.26560    -131.59334    -90.73440    -131.59334    -90.73440    -0.00000    179.26560
363940340.52059    -0.00000    179.26426    -131.54587    -90.73574    -131.54587    -90.73574    -0.00000    179.26426
364555947.76959    -0.00000    179.26292    -131.49840    -90.73708    -131.49840    -90.73708    -0.00000    179.26292
365172596.32192    -0.00000    179.26157    -131.45091    -90.73843    -131.45091    -90.73843    -0.00000    179.26157
365790287.93893    -0.00000    179.26023    -131.40341    -90.73977    -131.40341    -90.73977    -0.00000    179.26023
366409024.38499    -0.00000    179.25888    -131.35590    -90.74112    -131.35590    -90.74112    -0.00000    179.25888
367028807.42742    -0.00000    179.25752    -131.30837    -90.74248    -131.30837    -90.74248    -0.00000    179.25752
367649638.83655    -0.00000    179.25617    -131.26084    -90.74383    -131.26084    -90.74383    -0.00000    179.25617
368271520.38570    -0.00000    179.25481    -131.21329    -90.74519    -131.21329    -90.74519    -0.00000    179.25481
368894453.85118    -0.00000    179.25345    -131.16573    -90.74655    -131.16573    -90.74655    -0.00000    179.25345
369518441.01233    -0.00000    179.25208    -131.11815    -90.74792    -131.11815    -90.74792    -0.00000    179.25208
370143483.65147    -0.00000    179.25072    -131.07057    -90.74928    -131.07057    -90.74928    -0.00000    179.25072
370769583.55394    -0.00000    179.24935    -131.02297    -90.75065    -131.02297    -90.75065    -0.00000    179.24935
371396742.50812    -0.00000    179.24797    -130.97536    -90.75203    -130.97536    -90.75203    -0.00000    179.24797
372024962.30540    -0.00000    179.24660    -130.92773    -90.75340    -130.92773    -90.75340    -0.00000    179.24660
372654244.74020    -0.00000    179.24522    -130.88010    -90.75478    -130.88010    -90.75478    -0.00000    179.24522
373284591.60998    -0.00000    179.24384    -130.83245    -90.75616    -130.83245    -90.75616    -0.00000    179.24384
373916004.71524    -0.00000    179.24245    -130.78479    -90.75755    -130.78479    -90.75755    -0.00000    179.24245
374548485.85952    -0.00000    179.24107    -130.73711    -90.75893    -130.73711    -90.75893    -0.00000    179.24107
375182036.84941    -0.00000    179.23968    -130.68943    -90.76032    -130.68943    -90.76032    -0.00000    179.23968
375816659.49456    -0.00000    179.23828    -130.64173    -90.76172    -130.64173    -90.76172    -0.00000    179.23828
376452355.60769    -0.00000    179.23689    -130.59401    -90.76311    -130.59401    -90.76311    -0.00000    179.23689
377089127.00458    -0.00000    179.23549    -130.54629    -90.76451    -130.54629    -90.76451    -0.00000    179.23549
377726975.50407    -0.00000    179.23409    -130.49855    -90.76591    -130.49855    -90.76591    -0.00000    179.23409
378365902.92808    -0.00000    179.23268    -130.45079    -90.76732    -130.45079    -90.76732    -0.00000    179.23268
379005911.10163    -0.00000    179.23127    -130.40303    -90.76873    -130.40303    -90.76873    -0.00000    179.23127
379647001.85281    -0.00000    179.22986    -130.35525    -90.77014    -130.35525    -90.77014    -0.00000    179.22986
380289177.01281    -0.00000    179.22845    -130.30746    -90.77155    -130.30746    -90.77155    -0.00000    179.22845
380932438.41590    -0.00000    179.22703    -130.25965    -90.77297    -130.25965    -90.77297    -0.00000    179.22703
381576787.89949    -0.00000    179.22561    -130.21184    -90.77439    -130.21184    -90.77439    -0.00000    179.22561
382222227.30405    -0.00000    179.22419    -130.16401    -90.77581    -130.16401    -90.77581    -0.00000    179.22419
382868758.47320    -0.00000    179.22276    -130.11616    -90.77724    -130.11616    -90.77724    -0.00000    179.22276
383516383.25367    -0.00000    179.22133    -130.06830    -90.77867    -130.06830    -90.77867    -0.00000    179.22133
384165103.49530    -0.00000    179.21990    -130.02043    -90.78010    -130.02043    -90.78010    -0.00000    179.21990
384814921.05108    -0.00000    179.21847    -129.97254    -90.78153    -129.97254    -90.78153    -0.00000    179.21847
385465837.77711    -0.00000    179.21703    -129.92465    -90.78297    -129.92465    -90.78297    -0.00000    179.21703
386117855.53266    -0.00000    179.21559    -129.87673    -90.78441    -129.87673    -90.78441    -0.00000    179.21559
386770976.18011    -0.00000    179.21414    -129.82881    -90.78586    -129.82881    -90.78586    -0.00000    179.21414
387425201.58502    -0.00000    179.21270    -129.78087    -90.78730    -129.78087    -90.78730    -0.00000    179.21270
388080533.61609    -0.00000    179.21125    -129.73291    -90.78875    -129.73291    -90.78875    -0.00000    179.21125
388736974.14519    -0.00000    179.20979    -129.68495    -90.79021    -129.68495    -90.79021    -0.00000    179.20979
389394525.04734    -0.00000    179.20834    -129.63696    -90.79166    -129.63696    -90.79166    -0.00000    179.20834
390053188.20075    -0.00000    179.20688    -129.58897    -90.79312    -129.58897    -90.79312    -0.00000    179.20688
390712965.48680    -0.00000    179.20542    -129.54096    -90.79458    -129.54096    -90.79458    -0.00000    179.20542
391373858.79005    -0.00000    179.20395    -129.49294    -90.79605    -129.49294    -90.79605    -0.00000    179.20395
392035869.99825    -0.00000    179.20248    -129.44490    -90.79752    -129.44490    -90.79752    -0.00000    179.20248
392699001.00235    -0.00000    179.20101    -129.39685    -90.79899    -129.39685    -90.79899    -0.00000    179.20101
393363253.69648    -0.00000    179.19953    -129.34878    -90.80047    -129.34878    -90.80047    -0.00000    179.19953
394028629.97799    -0.00000    179.19806    -129.30070    -90.80194    -129.30070    -90.80194    -0.00000    179.19806
394695131.74743    -0.00000    179.19657    -129.25260    -90.80343    -129.25260    -90.80343    -0.00000    179.19657
395362760.90858    -0.00000    179.19509    -129.20450    -90.80491    -129.20450    -90.80491    -0.00000    179.19509
396031519.36842    -0.00000    179.19360    -129.15637    -90.80640    -129.15637    -90.80640    -0.00000    179.19360
396701409.03717    -0.00000    179.19211    -129.10823    -90.80789    -129.10823    -90.80789    -0.00000    179.19211
397372431.82828    -0.00000    179.19062    -129.06008    -90.80938    -129.06008    -90.80938    -0.00000    179.19062
398044589.65843    -0.00000    179.18912    -129.01192    -90.81088    -129.01192    -90.81088    -0.00000    179.18912
398717884.44754    -0.00000    179.18762    -128.96373    -90.81238    -128.96373    -90.81238    -0.00000    179.18762
399392318.11879    -0.00000    179.18611    -128.91554    -90.81389    -128.91554    -90.81389    -0.00000    179.18611
400067892.59860    -0.00000    179.18461    -128.86733    -90.81539    -128.86733    -90.81539    -0.00000    179.18461
400744609.81666    -0.00000    179.18310    -128.81910    -90.81690    -128.81910    -90.81690    -0.00000    179.18310
401422471.70591    -0.00000    179.18158    -128.77086    -90.81842    -128.77086    -90.81842    -0.00000    179.18158
402101480.20259    -0.00000    179.18006    -128.72260    -90.81994    -128.72260    -90.81994    -0.00000    179.18006
402781637.24616    -0.00000    179.17854    -128.67433    -90.82146    -128.67433    -90.82146    -0.00000    179.17854
403462944.77943    -0.00000    179.17702    -128.62605    -90.82298    -128.62605    -90.82298    -0.00000    179.17702
404145404.74843    -0.00000    179.17549    -128.57775    -90.82451    -128.57775    -90.82451    -0.00000    179.17549
404829019.10252    -0.00000    179.17396    -128.52943    -90.82604    -128.52943    -90.82604    -0.00000    179.17396
405513789.79436    -0.00000    179.17243    -128.48110    -90.82757    -128.48110    -90.82757    -0.00000    179.17243
406199718.77989    -0.00000    179.17089    -128.43275    -90.82911    -128.43275    -90.82911    -0.00000    179.17089
406886808.01838    -0.00000    179.16935    -128.38439    -90.83065    -128.38439    -90.83065    -0.00000    179.16935
407575059.47240    -0.00000    179.16781    -128.33602    -90.83219    -128.33602    -90.83219    -0.00000    179.16781
408264475.10785    -0.00000    179.16626    -128.28762    -90.83374    -128.28762    -90.83374    -0.00000    179.16626
408955056.89393    -0.00000    179.16471    -128.23922    -90.83529    -128.23922    -90.83529    -0.00000    179.16471
409646806.80322    -0.00000    179.16316    -128.19079    -90.83684    -128.19079    -90.83684    -0.00000    179.16316
410339726.81159    -0.00000    179.16160    -128.14235    -90.83840    -128.14235    -90.83840    -0.00000    179.16160
411033818.89827    -0.00000    179.16004    -128.09390    -90.83996    -128.09390    -90.83996    -0.00000    179.16004
411729085.04584    -0.00000    179.15848    -128.04543    -90.84152    -128.04543    -90.84152    -0.00000    179.15848
412425527.24023    -0.00000    179.15691    -127.99694    -90.84309    -127.99694    -90.84309    -0.00000    179.15691
413123147.47073    -0.00000    179.15534    -127.94844    -90.84466    -127.94844    -90.84466    -0.00000    179.15534
413821947.73000    -0.00000    179.15376    -127.89992    -90.84624    -127.89992    -90.84624    -0.00000    179.15376
414521930.01406    -0.00000    179.15219    -127.85139    -90.84781    -127.85139    -90.84781    -0.00000    179.15219
415223096.32231    -0.00000    179.15061    -127.80284    -90.84939    -127.80284    -90.84939    -0.00000    179.15061
415925448.65754    -0.00000    179.14902    -127.75428    -90.85098    -127.75428    -90.85098    -0.00000    179.14902
416628989.02592    -0.00000    179.14743    -127.70569    -90.85257    -127.70569    -90.85257    -0.00000    179.14743
417333719.43701    -0.00000    179.14584    -127.65710    -90.85416    -127.65710    -90.85416    -0.00000    179.14584
418039641.90379    -0.00000    179.14425    -127.60848    -90.85575    -127.60848    -90.85575    -0.00000    179.14425
418746758.44261    -0.00000    179.14265    -127.55985    -90.85735    -127.55985    -90.85735    -0.00000    179.14265
419455071.07326    -0.00000    179.14105    -127.51121    -90.85895    -127.51121    -90.85895    -0.00000    179.14105
420164581.81893    -0.00000    179.13944    -127.46254    -90.86056    -127.46254    -90.86056    -0.00000    179.13944
420875292.70625    -0.00000    179.13783    -127.41386    -90.86217    -127.41386    -90.86217    -0.00000    179.13783
421587205.76526    -0.00000    179.13622    -127.36517    -90.86378    -127.36517    -90.86378    -0.00000    179.13622
422300323.02943    -0.00000    179.13460    -127.31645    -90.86540    -127.31645    -90.86540    -0.00000    179.13460
423014646.53570    -0.00000    179.13298    -127.26772    -90.86702    -127.26772    -90.86702    -0.00000    179.13298
423730178.32443    -0.00000    179.13136    -127.21898    -90.86864    -127.21898    -90.86864    -0.00000    179.13136
424446920.43942    -0.00000    179.12973    -127.17021    -90.87027    -127.17021    -90.87027    -0.00000    179.12973
425164874.92797    -0.00000    179.12810    -127.12143    -90.87190    -127.12143    -90.87190    -0.00000    179.12810
425884043.84080    -0.00000    179.12647    -127.07264    -90.87353    -127.07264    -90.87353    -0.00000    179.12647
426604429.23212    -0.00000    179.12483    -127.02382    -90.87517    -127.02382    -90.87517    -0.00000    179.12483
427326033.15961    -0.00000    179.12319    -126.97499    -90.87681    -126.97499    -90.87681    -0.00000    179.12319
428048857.68443    -0.00000    179.12154    -126.92615    -90.87846    -126.92615    -90.87846    -0.00000    179.12154
428772904.87123    -0.00000    179.11989    -126.87728    -90.88011    -126.87728    -90.88011    -0.00000    179.11989
429498176.78815    -0.00000    179.11824    -126.82840    -90.88176    -126.82840    -90.88176    -0.00000    179.11824
430224675.50683    -0.00000    179.11658    -126.77950    -90.88342    -126.77950    -90.88342    -0.00000    179.11658
430952403.10242    -0.00000    179.11492    -126.73058    -90.88508    -126.73058    -90.88508    -0.00000    179.11492
431681361.65355    -0.00000    179.11326    -126.68165    -90.88674    -126.68165    -90.88674    -0.00000    179.11326
432411553.24240    -0.00000    179.11159    -126.63270    -90.88841    -126.63270    -90.88841    -0.00000    179.11159
433142979.95467    -0.00000    179.10992    -126.58373    -90.89008    -126.58373    -90.89008    -0.00000    179.10992
433875643.87957    -0.00000    179.10825    -126.53474    -90.89175    -126.53474    -90.89175    -0.00000    179.10825
434609547.10985    -0.00000    179.10657    -126.48573    -90.89343    -126.48573    -90.89343    -0.00000    179.10657
435344691.74181    -0.00000    179.10489    -126.43671    -90.89511    -126.43671    -90.89511    -0.00000    179.10489
436081079.87528    -0.00000    179.10320    -126.38767    -90.89680    -126.38767    -90.89680    -0.00000    179.10320
436818713.61366    -0.00000    179.10151    -126.33861    -90.89849    -126.33861    -90.89849    -0.00000    179.10151
437557595.06388    -0.00000    179.09982    -126.28954    -90.90018    -126.28954    -90.90018    -0.00000    179.09982
438297726.33648    -0.00000    179.09812    -126.24044    -90.90188    -126.24044    -90.90188    -0.00000    179.09812
439039109.54552    -0.00000    179.09642    -126.19133    -90.90358    -126.19133    -90.90358    -0.00000    179.09642
439781746.80866    -0.00000    179.09471    -126.14220    -90.90529    -126.14220    -90.90529    -0.00000    179.09471
440525640.24715    -0.00000    179.09300    -126.09305    -90.90700    -126.09305    -90.90700    -0.00000    179.09300
441270791.98581    -0.00000    179.09129    -126.04388    -90.90871    -126.04388    -90.90871    -0.00000    179.09129
442017204.15307    -0.00000    179.08957    -125.99470    -90.91043    -125.99470    -90.91043    -0.00000    179.08957
442764878.88094    -0.00000    179.08785    -125.94549    -90.91215    -125.94549    -90.91215    -0.00000    179.08785
443513818.30506    -0.00000    179.08613    -125.89627    -90.91387    -125.89627    -90.91387    -0.00000    179.08613
444264024.56466    -0.00000    179.08440    -125.84703    -90.91560    -125.84703    -90.91560    -0.00000    179.08440
445015499.80261    -0.00000    179.08267    -125.79777    -90.91733    -125.79777    -90.91733    -0.00000    179.08267
445768246.16540    -0.00000    179.08093    -125.74849    -90.91907    -125.74849    -90.91907    -0.00000    179.08093
446522265.80313    -0.00000    179.07919    -125.69919    -90.92081    -125.69919    -90.92081    -0.00000    179.07919
447277560.86956    -0.00000    179.07744    -125.64988    -90.92256    -125.64988    -90.92256    -0.00000    179.07744
448034133.52208    -0.00000    179.07570    -125.60054    -90.92430    -125.60054    -90.92430    -0.00000    179.07570
448791985.92174    -0.00000    179.07394    -125.55119    -90.92606    -125.55119    -90.92606    -0.00000    179.07394
449551120.23324    -0.00000    179.07219    -125.50182    -90.92781    -125.50182    -90.92781    -0.00000    179.07219
450311538.62494    -0.00000    179.07043    -125.45242    -90.92957    -125.45242    -90.92957    -0.00000    179.07043
451073243.26886    -0.00000    179.06866    -125.40301    -90.93134    -125.40301    -90.93134    -0.00000    179.06866
451836236.34072    -0.00000    179.06689    -125.35358    -90.93311    -125.35358    -90.93311    -0.00000    179.06689
452600520.01990    -0.00000    179.06512    -125.30413    -90.93488    -125.30413    -90.93488    -0.00000    179.06512
453366096.48946    -0.00000    179.06334    -125.25466    -90.93666    -125.25466    -90.93666    -0.00000    179.06334
454132967.93617    -0.00000    179.06156    -125.20517    -90.93844    -125.20517    -90.93844    -0.00000    179.06156
454901136.55049    -0.00000    179.05978    -125.15566    -90.94022    -125.15566    -90.94022    -0.00000    179.05978
455670604.52658    -0.00000    179.05799    -125.10614    -90.94201    -125.10614    -90.94201    -0.00000    179.05799
456441374.06233    -0.00000    179.05620    -125.05659    -90.94380    -125.05659    -90.94380    -0.00000    179.05620
457213447.35933    -0.00000    179.05440    -125.00702    -90.94560    -125.00702    -90.94560    -0.00000    179.05440
