! rf-tools.com
! Date: Thu Jan 30 2020 11:43:47 GMT+0000 (格林尼治标准时间)
# Hz S DB R 50.00
!Frequency        S11 dB       S11 Deg       S21 dB      S21 Deg      S12 dB      S12 Deg      S22 dB       S22 Deg      
600000.00000    -0.00000    179.79232    -82.58278    89.79232    -82.58278    89.79232    -0.00000    179.79232
604438.08460    -0.00000    179.79078    -82.51878    89.79078    -82.51878    89.79078    -0.00000    179.79078
608908.99685    -0.00000    179.78923    -82.45478    89.78923    -82.45478    89.78923    -0.00000    179.78923
613412.97959    -0.00000    179.78767    -82.39078    89.78767    -82.39078    89.78767    -0.00000    179.78767
617950.27742    -0.00000    179.78610    -82.32678    89.78610    -82.32678    89.78610    -0.00000    179.78610
622521.13676    -0.00000    179.78452    -82.26278    89.78452    -82.26278    89.78452    -0.00000    179.78452
627125.80588    -0.00000    179.78293    -82.19878    89.78293    -82.19878    89.78293    -0.00000    179.78293
631764.53485    -0.00000    179.78132    -82.13478    89.78132    -82.13478    89.78132    -0.00000    179.78132
636437.57560    -0.00000    179.77970    -82.07078    89.77970    -82.07078    89.77970    -0.00000    179.77970
641145.18194    -0.00000    179.77807    -82.00678    89.77807    -82.00678    89.77807    -0.00000    179.77807
645887.60953    -0.00000    179.77643    -81.94278    89.77643    -81.94278    89.77643    -0.00000    179.77643
650665.11595    -0.00000    179.77478    -81.87878    89.77478    -81.87878    89.77478    -0.00000    179.77478
655477.96067    -0.00000    179.77311    -81.81478    89.77311    -81.81478    89.77311    -0.00000    179.77311
660326.40507    -0.00000    179.77143    -81.75078    89.77143    -81.75078    89.77143    -0.00000    179.77143
665210.71248    -0.00000    179.76974    -81.68679    89.76974    -81.68679    89.76974    -0.00000    179.76974
670131.14818    -0.00000    179.76804    -81.62279    89.76804    -81.62279    89.76804    -0.00000    179.76804
675087.97939    -0.00000    179.76632    -81.55879    89.76632    -81.55879    89.76632    -0.00000    179.76632
680081.47533    -0.00000    179.76460    -81.49479    89.76460    -81.49479    89.76460    -0.00000    179.76460
685111.90720    -0.00000    179.76285    -81.43079    89.76285    -81.43079    89.76285    -0.00000    179.76285
690179.54821    -0.00000    179.76110    -81.36679    89.76110    -81.36679    89.76110    -0.00000    179.76110
695284.67358    -0.00000    179.75933    -81.30280    89.75933    -81.30280    89.75933    -0.00000    179.75933
700427.56058    -0.00000    179.75755    -81.23880    89.75755    -81.23880    89.75755    -0.00000    179.75755
705608.48853    -0.00000    179.75576    -81.17480    89.75576    -81.17480    89.75576    -0.00000    179.75576
710827.73880    -0.00000    179.75395    -81.11081    89.75395    -81.11081    89.75395    -0.00000    179.75395
716085.59487    -0.00000    179.75213    -81.04681    89.75213    -81.04681    89.75213    -0.00000    179.75213
721382.34228    -0.00000    179.75030    -80.98281    89.75030    -80.98281    89.75030    -0.00000    179.75030
726718.26872    -0.00000    179.74845    -80.91882    89.74845    -80.91882    89.74845    -0.00000    179.74845
732093.66398    -0.00000    179.74659    -80.85482    89.74659    -80.85482    89.74659    -0.00000    179.74659
737508.82000    -0.00000    179.74472    -80.79082    89.74472    -80.79082    89.74472    -0.00000    179.74472
742964.03090    -0.00000    179.74283    -80.72683    89.74283    -80.72683    89.74283    -0.00000    179.74283
748459.59293    -0.00000    179.74093    -80.66283    89.74093    -80.66283    89.74093    -0.00000    179.74093
753995.80459    -0.00000    179.73901    -80.59884    89.73901    -80.59884    89.73901    -0.00000    179.73901
759572.96653    -0.00000    179.73708    -80.53484    89.73708    -80.53484    89.73708    -0.00000    179.73708
765191.38167    -0.00000    179.73514    -80.47085    89.73514    -80.47085    89.73514    -0.00000    179.73514
770851.35515    -0.00000    179.73318    -80.40685    89.73318    -80.40685    89.73318    -0.00000    179.73318
776553.19436    -0.00000    179.73120    -80.34286    89.73120    -80.34286    89.73120    -0.00000    179.73120
782297.20898    -0.00000    179.72921    -80.27887    89.72921    -80.27887    89.72921    -0.00000    179.72921
788083.71097    -0.00000    179.72721    -80.21487    89.72721    -80.21487    89.72721    -0.00000    179.72721
793913.01460    -0.00000    179.72519    -80.15088    89.72519    -80.15088    89.72519    -0.00000    179.72519
799785.43647    -0.00000    179.72316    -80.08689    89.72316    -80.08689    89.72316    -0.00000    179.72316
805701.29552    -0.00000    179.72111    -80.02289    89.72111    -80.02289    89.72111    -0.00000    179.72111
811660.91303    -0.00000    179.71905    -79.95890    89.71905    -79.95890    89.71905    -0.00000    179.71905
817664.61270    -0.00000    179.71697    -79.89491    89.71697    -79.89491    89.71697    -0.00000    179.71697
823712.72057    -0.00000    179.71488    -79.83092    89.71488    -79.83092    89.71488    -0.00000    179.71488
829805.56513    -0.00000    179.71277    -79.76693    89.71277    -79.76693    89.71277    -0.00000    179.71277
835943.47730    -0.00000    179.71065    -79.70293    89.71065    -79.70293    89.71065    -0.00000    179.71065
842126.79042    -0.00000    179.70851    -79.63894    89.70851    -79.63894    89.70851    -0.00000    179.70851
848355.84031    -0.00000    179.70635    -79.57495    89.70635    -79.57495    89.70635    -0.00000    179.70635
854630.96529    -0.00000    179.70418    -79.51096    89.70418    -79.51096    89.70418    -0.00000    179.70418
860952.50617    -0.00000    179.70199    -79.44697    89.70199    -79.44697    89.70199    -0.00000    179.70199
867320.80626    -0.00000    179.69978    -79.38298    89.69978    -79.38298    89.69978    -0.00000    179.69978
873736.21145    -0.00000    179.69756    -79.31899    89.69756    -79.31899    89.69756    -0.00000    179.69756
880199.07015    -0.00000    179.69533    -79.25500    89.69533    -79.25500    89.69533    -0.00000    179.69533
886709.73338    -0.00000    179.69307    -79.19102    89.69307    -79.19102    89.69307    -0.00000    179.69307
893268.55473    -0.00000    179.69080    -79.12703    89.69080    -79.12703    89.69080    -0.00000    179.69080
899875.89042    -0.00000    179.68852    -79.06304    89.68852    -79.06304    89.68852    -0.00000    179.68852
906532.09931    -0.00000    179.68621    -78.99905    89.68621    -78.99905    89.68621    -0.00000    179.68621
913237.54289    -0.00000    179.68389    -78.93506    89.68389    -78.93506    89.68389    -0.00000    179.68389
919992.58534    -0.00000    179.68155    -78.87108    89.68155    -78.87108    89.68155    -0.00000    179.68155
926797.59355    -0.00000    179.67920    -78.80709    89.67920    -78.80709    89.67920    -0.00000    179.67920
933652.93709    -0.00000    179.67682    -78.74310    89.67682    -78.74310    89.67682    -0.00000    179.67682
940558.98829    -0.00000    179.67443    -78.67912    89.67443    -78.67912    89.67443    -0.00000    179.67443
947516.12222    -0.00000    179.67203    -78.61513    89.67203    -78.61513    89.67203    -0.00000    179.67203
954524.71674    -0.00000    179.66960    -78.55115    89.66960    -78.55115    89.66960    -0.00000    179.66960
961585.15248    -0.00000    179.66716    -78.48716    89.66716    -78.48716    89.66716    -0.00000    179.66716
968697.81290    -0.00000    179.66469    -78.42318    89.66469    -78.42318    89.66469    -0.00000    179.66469
975863.08431    -0.00000    179.66221    -78.35919    89.66221    -78.35919    89.66221    -0.00000    179.66221
983081.35585    -0.00000    179.65972    -78.29521    89.65972    -78.29521    89.65972    -0.00000    179.65972
990353.01955    -0.00000    179.65720    -78.23123    89.65720    -78.23123    89.65720    -0.00000    179.65720
997678.47036    -0.00000    179.65466    -78.16724    89.65466    -78.16724    89.65466    -0.00000    179.65466
1005058.10611    -0.00000    179.65211    -78.10326    89.65211    -78.10326    89.65211    -0.00000    179.65211
1012492.32762    -0.00000    179.64953    -78.03928    89.64953    -78.03928    89.64953    -0.00000    179.64953
1019981.53862    -0.00000    179.64694    -77.97530    89.64694    -77.97530    89.64694    -0.00000    179.64694
1027526.14589    -0.00000    179.64433    -77.91132    89.64433    -77.91132    89.64433    -0.00000    179.64433
1035126.55916    -0.00000    179.64170    -77.84734    89.64170    -77.84734    89.64170    -0.00000    179.64170
1042783.19122    -0.00000    179.63905    -77.78336    89.63905    -77.78336    89.63905    -0.00000    179.63905
1050496.45792    -0.00000    179.63638    -77.71938    89.63638    -77.71938    89.63638    -0.00000    179.63638
1058266.77817    -0.00000    179.63369    -77.65540    89.63369    -77.65540    89.63369    -0.00000    179.63369
1066094.57399    -0.00000    179.63098    -77.59142    89.63098    -77.59142    89.63098    -0.00000    179.63098
1073980.27050    -0.00000    179.62825    -77.52744    89.62825    -77.52744    89.62825    -0.00000    179.62825
1081924.29600    -0.00000    179.62550    -77.46346    89.62550    -77.46346    89.62550    -0.00000    179.62550
1089927.08192    -0.00000    179.62273    -77.39948    89.62273    -77.39948    89.62273    -0.00000    179.62273
1097989.06291    -0.00000    179.61994    -77.33551    89.61994    -77.33551    89.61994    -0.00000    179.61994
1106110.67683    -0.00000    179.61713    -77.27153    89.61713    -77.27153    89.61713    -0.00000    179.61713
1114292.36476    -0.00000    179.61430    -77.20756    89.61430    -77.20756    89.61430    -0.00000    179.61430
1122534.57106    -0.00000    179.61144    -77.14358    89.61144    -77.14358    89.61144    -0.00000    179.61144
1130837.74338    -0.00000    179.60857    -77.07961    89.60857    -77.07961    89.60857    -0.00000    179.60857
1139202.33267    -0.00000    179.60567    -77.01563    89.60567    -77.01563    89.60567    -0.00000    179.60567
1147628.79321    -0.00000    179.60276    -76.95166    89.60276    -76.95166    89.60276    -0.00000    179.60276
1156117.58266    -0.00000    179.59982    -76.88769    89.59982    -76.88769    89.59982    -0.00000    179.59982
1164669.16206    -0.00000    179.59686    -76.82371    89.59686    -76.82371    89.59686    -0.00000    179.59686
1173283.99584    -0.00000    179.59388    -76.75974    89.59388    -76.75974    89.59388    -0.00000    179.59388
1181962.55189    -0.00000    179.59087    -76.69577    89.59087    -76.69577    89.59087    -0.00000    179.59087
1190705.30156    -0.00000    179.58785    -76.63180    89.58785    -76.63180    89.58785    -0.00000    179.58785
1199512.71965    -0.00000    179.58480    -76.56783    89.58480    -76.56783    89.58480    -0.00000    179.58480
1208385.28453    -0.00000    179.58173    -76.50386    89.58173    -76.50386    89.58173    -0.00000    179.58173
1217323.47806    -0.00000    179.57863    -76.43989    89.57863    -76.43989    89.57863    -0.00000    179.57863
1226327.78570    -0.00000    179.57552    -76.37592    89.57552    -76.37592    89.57552    -0.00000    179.57552
1235398.69646    -0.00000    179.57238    -76.31195    89.57238    -76.31195    89.57238    -0.00000    179.57238
1244536.70301    -0.00000    179.56921    -76.24799    89.56921    -76.24799    89.56921    -0.00000    179.56921
1253742.30163    -0.00000    179.56603    -76.18402    89.56603    -76.18402    89.56603    -0.00000    179.56603
1263015.99229    -0.00000    179.56282    -76.12006    89.56282    -76.12006    89.56282    -0.00000    179.56282
1272358.27866    -0.00000    179.55958    -76.05609    89.55958    -76.05609    89.55958    -0.00000    179.55958
1281769.66813    -0.00000    179.55633    -75.99213    89.55633    -75.99213    89.55633    -0.00000    179.55633
1291250.67183    -0.00000    179.55304    -75.92816    89.55304    -75.92816    89.55304    -0.00000    179.55304
1300801.80470    -0.00000    179.54974    -75.86420    89.54974    -75.86420    89.54974    -0.00000    179.54974
1310423.58546    -0.00000    179.54641    -75.80024    89.54641    -75.80024    89.54641    -0.00000    179.54641
1320116.53668    -0.00000    179.54305    -75.73628    89.54305    -75.73628    89.54305    -0.00000    179.54305
1329881.18479    -0.00000    179.53967    -75.67232    89.53967    -75.67232    89.53967    -0.00000    179.53967
1339718.06013    -0.00000    179.53627    -75.60836    89.53627    -75.60836    89.53627    -0.00000    179.53627
1349627.69694    -0.00000    179.53284    -75.54440    89.53284    -75.54440    89.53284    -0.00000    179.53284
1359610.63344    -0.00000    179.52938    -75.48044    89.52938    -75.48044    89.52938    -0.00000    179.52938
1369667.41179    -0.00000    179.52590    -75.41648    89.52590    -75.41648    89.52590    -0.00000    179.52590
1379798.57820    -0.00000    179.52239    -75.35253    89.52239    -75.35253    89.52239    -0.00000    179.52239
1390004.68289    -0.00000    179.51886    -75.28857    89.51886    -75.28857    89.51886    -0.00000    179.51886
1400286.28018    -0.00000    179.51530    -75.22461    89.51530    -75.22461    89.51530    -0.00000    179.51530
1410643.92847    -0.00000    179.51172    -75.16066    89.51172    -75.16066    89.51172    -0.00000    179.51172
1421078.19029    -0.00000    179.50810    -75.09671    89.50810    -75.09671    89.50810    -0.00000    179.50810
1431589.63234    -0.00000    179.50447    -75.03275    89.50447    -75.03275    89.50447    -0.00000    179.50447
1442178.82550    -0.00000    179.50080    -74.96880    89.50080    -74.96880    89.50080    -0.00000    179.50080
1452846.34489    -0.00000    179.49711    -74.90485    89.49711    -74.90485    89.49711    -0.00000    179.49711
1463592.76987    -0.00000    179.49339    -74.84090    89.49339    -74.84090    89.49339    -0.00000    179.49339
1474418.68409    -0.00000    179.48964    -74.77695    89.48964    -74.77695    89.48964    -0.00000    179.48964
1485324.67551    -0.00000    179.48587    -74.71300    89.48587    -74.71300    89.48587    -0.00000    179.48587
1496311.33645    -0.00000    179.48206    -74.64906    89.48206    -74.64906    89.48206    -0.00000    179.48206
1507379.26361    -0.00000    179.47823    -74.58511    89.47823    -74.58511    89.47823    -0.00000    179.47823
1518529.05810    -0.00000    179.47437    -74.52117    89.47437    -74.52117    89.47437    -0.00000    179.47437
1529761.32547    -0.00000    179.47048    -74.45722    89.47048    -74.45722    89.47048    -0.00000    179.47048
1541076.67577    -0.00000    179.46657    -74.39328    89.46657    -74.39328    89.46657    -0.00000    179.46657
1552475.72354    -0.00000    179.46262    -74.32934    89.46262    -74.32934    89.46262    -0.00000    179.46262
1563959.08787    -0.00000    179.45865    -74.26540    89.45865    -74.26540    89.45865    -0.00000    179.45865
1575527.39243    -0.00000    179.45464    -74.20146    89.45464    -74.20146    89.45464    -0.00000    179.45464
1587181.26552    -0.00000    179.45061    -74.13752    89.45061    -74.13752    89.45061    -0.00000    179.45061
1598921.34007    -0.00000    179.44655    -74.07358    89.44655    -74.07358    89.44655    -0.00000    179.44655
1610748.25369    -0.00000    179.44245    -74.00964    89.44245    -74.00964    89.44245    -0.00000    179.44245
1622662.64872    -0.00000    179.43833    -73.94571    89.43833    -73.94571    89.43833    -0.00000    179.43833
1634665.17223    -0.00000    179.43417    -73.88177    89.43417    -73.88177    89.43417    -0.00000    179.43417
1646756.47611    -0.00000    179.42999    -73.81784    89.42999    -73.81784    89.42999    -0.00000    179.42999
1658937.21703    -0.00000    179.42577    -73.75391    89.42577    -73.75391    89.42577    -0.00000    179.42577
1671208.05655    -0.00000    179.42152    -73.68997    89.42152    -73.68997    89.42152    -0.00000    179.42152
1683569.66111    -0.00000    179.41724    -73.62604    89.41724    -73.62604    89.41724    -0.00000    179.41724
1696022.70208    -0.00000    179.41293    -73.56212    89.41293    -73.56212    89.41293    -0.00000    179.41293
1708567.85580    -0.00000    179.40859    -73.49819    89.40859    -73.49819    89.40859    -0.00000    179.40859
1721205.80361    -0.00000    179.40422    -73.43426    89.40422    -73.43426    89.40422    -0.00000    179.40422
1733937.23189    -0.00000    179.39981    -73.37034    89.39981    -73.37034    89.39981    -0.00000    179.39981
1746762.83209    -0.00000    179.39537    -73.30641    89.39537    -73.30641    89.39537    -0.00000    179.39537
1759683.30080    -0.00000    179.39090    -73.24249    89.39090    -73.24249    89.39090    -0.00000    179.39090
1772699.33972    -0.00000    179.38639    -73.17857    89.38639    -73.17857    89.38639    -0.00000    179.38639
1785811.65578    -0.00000    179.38185    -73.11465    89.38185    -73.11465    89.38185    -0.00000    179.38185
1799020.96112    -0.00000    179.37728    -73.05073    89.37728    -73.05073    89.37728    -0.00000    179.37728
1812327.97316    -0.00000    179.37267    -72.98681    89.37267    -72.98681    89.37267    -0.00000    179.37267
1825733.41460    -0.00000    179.36803    -72.92290    89.36803    -72.92290    89.36803    -0.00000    179.36803
1839238.01351    -0.00000    179.36336    -72.85899    89.36336    -72.85899    89.36336    -0.00000    179.36336
1852842.50334    -0.00000    179.35865    -72.79507    89.35865    -72.79507    89.35865    -0.00000    179.35865
1866547.62297    -0.00000    179.35391    -72.73116    89.35391    -72.73116    89.35391    -0.00000    179.35391
1880354.11673    -0.00000    179.34913    -72.66725    89.34913    -72.66725    89.34913    -0.00000    179.34913
1894262.73447    -0.00000    179.34431    -72.60334    89.34431    -72.60334    89.34431    -0.00000    179.34431
1908274.23158    -0.00000    179.33946    -72.53944    89.33946    -72.53944    89.33946    -0.00000    179.33946
1922389.36904    -0.00000    179.33458    -72.47553    89.33458    -72.47553    89.33458    -0.00000    179.33458
1936608.91346    -0.00000    179.32966    -72.41163    89.32966    -72.41163    89.32966    -0.00000    179.32966
1950933.63711    -0.00000    179.32470    -72.34773    89.32470    -72.34773    89.32470    -0.00000    179.32470
1965364.31799    -0.00000    179.31970    -72.28383    89.31970    -72.28383    89.31970    -0.00000    179.31970
1979901.73984    -0.00000    179.31467    -72.21993    89.31467    -72.21993    89.31467    -0.00000    179.31467
1994546.69220    -0.00000    179.30960    -72.15603    89.30960    -72.15603    89.30960    -0.00000    179.30960
2009299.97046    -0.00000    179.30449    -72.09213    89.30449    -72.09213    89.30449    -0.00000    179.30449
2024162.37588    -0.00000    179.29935    -72.02824    89.29935    -72.02824    89.29935    -0.00000    179.29935
2039134.71565    -0.00000    179.29417    -71.96435    89.29417    -71.96435    89.29417    -0.00000    179.29417
2054217.80295    -0.00000    179.28894    -71.90046    89.28894    -71.90046    89.28894    -0.00000    179.28894
2069412.45693    -0.00000    179.28369    -71.83657    89.28369    -71.83657    89.28369    -0.00000    179.28369
2084719.50285    -0.00000    179.27839    -71.77268    89.27839    -71.77268    89.27839    -0.00000    179.27839
2100139.77205    -0.00000    179.27305    -71.70880    89.27305    -71.70880    89.27305    -0.00000    179.27305
2115674.10201    -0.00000    179.26767    -71.64492    89.26767    -71.64492    89.26767    -0.00000    179.26767
2131323.33642    -0.00000    179.26225    -71.58104    89.26225    -71.58104    89.26225    -0.00000    179.26225
2147088.32521    -0.00000    179.25680    -71.51716    89.25680    -71.51716    89.25680    -0.00000    179.25680
