! rf-tools.com
! Date: Thu Jan 30 2020 11:05:01 GMT+0000 (格林尼治标准时间)
# Hz S DB R 50.00
!Frequency        S11 dB       S11 Deg       S21 dB      S21 Deg      S12 dB      S12 Deg      S22 dB       S22 Deg      
347119048.27170    -0.00000    179.24955    -106.97608    179.24955    -106.97608    179.24955    -0.00000    -0.75045
347706202.20489    -0.00000    179.24819    -106.94466    179.24819    -106.94466    179.24819    -0.00000    -0.75181
348294349.31245    -0.00000    179.24683    -106.91323    179.24683    -106.91323    179.24683    -0.00000    -0.75317
348883491.27433    -0.00000    179.24547    -106.88179    179.24547    -106.88179    179.24547    -0.00000    -0.75453
349473629.77335    -0.00000    179.24410    -106.85034    179.24410    -106.85034    179.24410    -0.00000    -0.75590
350064766.49514    -0.00000    179.24273    -106.81888    179.24273    -106.81888    179.24273    -0.00000    -0.75727
350656903.12821    -0.00000    179.24136    -106.78742    179.24136    -106.78742    179.24136    -0.00000    -0.75864
351250041.36392    -0.00000    179.23998    -106.75595    179.23998    -106.75595    179.23998    -0.00000    -0.76002
351844182.89648    -0.00000    179.23860    -106.72447    179.23860    -106.72447    179.23860    -0.00000    -0.76140
352439329.42297    -0.00000    179.23722    -106.69299    179.23722    -106.69299    179.23722    -0.00000    -0.76278
353035482.64334    -0.00000    179.23584    -106.66150    179.23584    -106.66150    179.23584    -0.00000    -0.76416
353632644.26044    -0.00000    179.23445    -106.63000    179.23445    -106.63000    179.23445    -0.00000    -0.76555
354230815.97995    -0.00000    179.23306    -106.59849    179.23306    -106.59849    179.23306    -0.00000    -0.76694
354829999.51049    -0.00000    179.23166    -106.56698    179.23166    -106.56698    179.23166    -0.00000    -0.76834
355430196.56353    -0.00000    179.23027    -106.53546    179.23027    -106.53546    179.23027    -0.00000    -0.76973
356031408.85345    -0.00000    179.22887    -106.50393    179.22887    -106.50393    179.22887    -0.00000    -0.77113
356633638.09753    -0.00000    179.22747    -106.47239    179.22747    -106.47239    179.22747    -0.00000    -0.77253
357236886.01596    -0.00000    179.22606    -106.44085    179.22606    -106.44085    179.22606    -0.00000    -0.77394
357841154.33182    -0.00000    179.22466    -106.40929    179.22466    -106.40929    179.22466    -0.00000    -0.77534
358446444.77114    -0.00000    179.22325    -106.37773    179.22325    -106.37773    179.22325    -0.00000    -0.77675
359052759.06283    -0.00000    179.22183    -106.34617    179.22183    -106.34617    179.22183    -0.00000    -0.77817
359660098.93875    -0.00000    179.22042    -106.31459    179.22042    -106.31459    179.22042    -0.00000    -0.77958
360268466.13368    -0.00000    179.21900    -106.28301    179.21900    -106.28301    179.21900    -0.00000    -0.78100
360877862.38533    -0.00000    179.21757    -106.25142    179.21757    -106.25142    179.21757    -0.00000    -0.78243
361488289.43437    -0.00000    179.21615    -106.21982    179.21615    -106.21982    179.21615    -0.00000    -0.78385
362099749.02438    -0.00000    179.21472    -106.18821    179.21472    -106.18821    179.21472    -0.00000    -0.78528
362712242.90193    -0.00000    179.21329    -106.15660    179.21329    -106.15660    179.21329    -0.00000    -0.78671
363325772.81651    -0.00000    179.21186    -106.12497    179.21186    -106.12497    179.21186    -0.00000    -0.78814
363940340.52059    -0.00000    179.21042    -106.09334    179.21042    -106.09334    179.21042    -0.00000    -0.78958
364555947.76959    -0.00000    179.20898    -106.06170    179.20898    -106.06170    179.20898    -0.00000    -0.79102
365172596.32192    -0.00000    179.20754    -106.03006    179.20754    -106.03006    179.20754    -0.00000    -0.79246
365790287.93893    -0.00000    179.20609    -105.99840    179.20609    -105.99840    179.20609    -0.00000    -0.79391
366409024.38499    -0.00000    179.20464    -105.96674    179.20464    -105.96674    179.20464    -0.00000    -0.79536
367028807.42742    -0.00000    179.20319    -105.93507    179.20319    -105.93507    179.20319    -0.00000    -0.79681
367649638.83655    -0.00000    179.20173    -105.90339    179.20173    -105.90339    179.20173    -0.00000    -0.79827
368271520.38570    -0.00000    179.20028    -105.87170    179.20028    -105.87170    179.20028    -0.00000    -0.79972
368894453.85118    -0.00000    179.19882    -105.84001    179.19882    -105.84001    179.19882    -0.00000    -0.80118
369518441.01233    -0.00000    179.19735    -105.80830    179.19735    -105.80830    179.19735    -0.00000    -0.80265
370143483.65147    -0.00000    179.19588    -105.77659    179.19588    -105.77659    179.19588    -0.00000    -0.80412
370769583.55394    -0.00000    179.19441    -105.74487    179.19441    -105.74487    179.19441    -0.00000    -0.80559
371396742.50812    -0.00000    179.19294    -105.71314    179.19294    -105.71314    179.19294    -0.00000    -0.80706
372024962.30540    -0.00000    179.19146    -105.68141    179.19146    -105.68141    179.19146    -0.00000    -0.80854
372654244.74020    -0.00000    179.18999    -105.64966    179.18999    -105.64966    179.18999    -0.00000    -0.81001
373284591.60998    -0.00000    179.18850    -105.61791    179.18850    -105.61791    179.18850    -0.00000    -0.81150
373916004.71524    -0.00000    179.18702    -105.58615    179.18702    -105.58615    179.18702    -0.00000    -0.81298
374548485.85952    -0.00000    179.18553    -105.55438    179.18553    -105.55438    179.18553    -0.00000    -0.81447
375182036.84941    -0.00000    179.18404    -105.52260    179.18404    -105.52260    179.18404    -0.00000    -0.81596
375816659.49456    -0.00000    179.18254    -105.49081    179.18254    -105.49081    179.18254    -0.00000    -0.81746
376452355.60769    -0.00000    179.18104    -105.45901    179.18104    -105.45901    179.18104    -0.00000    -0.81896
377089127.00458    -0.00000    179.17954    -105.42721    179.17954    -105.42721    179.17954    -0.00000    -0.82046
377726975.50407    -0.00000    179.17804    -105.39540    179.17804    -105.39540    179.17804    -0.00000    -0.82196
378365902.92808    -0.00000    179.17653    -105.36357    179.17653    -105.36357    179.17653    -0.00000    -0.82347
379005911.10163    -0.00000    179.17502    -105.33174    179.17502    -105.33174    179.17502    -0.00000    -0.82498
379647001.85281    -0.00000    179.17350    -105.29991    179.17350    -105.29991    179.17350    -0.00000    -0.82650
380289177.01281    -0.00000    179.17199    -105.26806    179.17199    -105.26806    179.17199    -0.00000    -0.82801
380932438.41590    -0.00000    179.17047    -105.23620    179.17047    -105.23620    179.17047    -0.00000    -0.82953
381576787.89949    -0.00000    179.16894    -105.20433    179.16894    -105.20433    179.16894    -0.00000    -0.83106
382222227.30405    -0.00000    179.16742    -105.17246    179.16742    -105.17246    179.16742    -0.00000    -0.83258
382868758.47320    -0.00000    179.16589    -105.14058    179.16589    -105.14058    179.16589    -0.00000    -0.83411
383516383.25367    -0.00000    179.16435    -105.10869    179.16435    -105.10869    179.16435    -0.00000    -0.83565
384165103.49530    -0.00000    179.16282    -105.07678    179.16282    -105.07678    179.16282    -0.00000    -0.83718
384814921.05108    -0.00000    179.16128    -105.04487    179.16128    -105.04487    179.16128    -0.00000    -0.83872
385465837.77711    -0.00000    179.15973    -105.01295    179.15973    -105.01295    179.15973    -0.00000    -0.84027
386117855.53266    -0.00000    179.15819    -104.98103    179.15819    -104.98103    179.15819    -0.00000    -0.84181
386770976.18011    -0.00000    179.15664    -104.94909    179.15664    -104.94909    179.15664    -0.00000    -0.84336
387425201.58502    -0.00000    179.15508    -104.91714    179.15508    -104.91714    179.15508    -0.00000    -0.84492
388080533.61609    -0.00000    179.15353    -104.88519    179.15353    -104.88519    179.15353    -0.00000    -0.84647
388736974.14519    -0.00000    179.15197    -104.85322    179.15197    -104.85322    179.15197    -0.00000    -0.84803
389394525.04734    -0.00000    179.15040    -104.82125    179.15040    -104.82125    179.15040    -0.00000    -0.84960
390053188.20075    -0.00000    179.14884    -104.78927    179.14884    -104.78927    179.14884    -0.00000    -0.85116
390712965.48680    -0.00000    179.14727    -104.75727    179.14727    -104.75727    179.14727    -0.00000    -0.85273
391373858.79005    -0.00000    179.14569    -104.72527    179.14569    -104.72527    179.14569    -0.00000    -0.85431
392035869.99825    -0.00000    179.14412    -104.69326    179.14412    -104.69326    179.14412    -0.00000    -0.85588
392699001.00235    -0.00000    179.14254    -104.66124    179.14254    -104.66124    179.14254    -0.00000    -0.85746
393363253.69648    -0.00000    179.14096    -104.62921    179.14096    -104.62921    179.14096    -0.00000    -0.85904
394028629.97799    -0.00000    179.13937    -104.59717    179.13937    -104.59717    179.13937    -0.00000    -0.86063
394695131.74743    -0.00000    179.13778    -104.56512    179.13778    -104.56512    179.13778    -0.00000    -0.86222
395362760.90858    -0.00000    179.13619    -104.53306    179.13619    -104.53306    179.13619    -0.00000    -0.86381
396031519.36842    -0.00000    179.13459    -104.50100    179.13459    -104.50100    179.13459    -0.00000    -0.86541
396701409.03717    -0.00000    179.13299    -104.46892    179.13299    -104.46892    179.13299    -0.00000    -0.86701
397372431.82828    -0.00000    179.13138    -104.43683    179.13138    -104.43683    179.13138    -0.00000    -0.86862
398044589.65843    -0.00000    179.12978    -104.40474    179.12978    -104.40474    179.12978    -0.00000    -0.87022
398717884.44754    -0.00000    179.12817    -104.37263    179.12817    -104.37263    179.12817    -0.00000    -0.87183
399392318.11879    -0.00000    179.12655    -104.34051    179.12655    -104.34051    179.12655    -0.00000    -0.87345
400067892.59860    -0.00000    179.12494    -104.30839    179.12494    -104.30839    179.12494    -0.00000    -0.87506
400744609.81666    -0.00000    179.12331    -104.27625    179.12331    -104.27625    179.12331    -0.00000    -0.87669
401422471.70591    -0.00000    179.12169    -104.24411    179.12169    -104.24411    179.12169    -0.00000    -0.87831
402101480.20259    -0.00000    179.12006    -104.21195    179.12006    -104.21195    179.12006    -0.00000    -0.87994
402781637.24616    -0.00000    179.11843    -104.17979    179.11843    -104.17979    179.11843    -0.00000    -0.88157
403462944.77943    -0.00000    179.11679    -104.14761    179.11679    -104.14761    179.11679    -0.00000    -0.88321
404145404.74843    -0.00000    179.11516    -104.11542    179.11516    -104.11542    179.11516    -0.00000    -0.88484
404829019.10252    -0.00000    179.11351    -104.08323    179.11351    -104.08323    179.11351    -0.00000    -0.88649
405513789.79436    -0.00000    179.11187    -104.05102    179.11187    -104.05102    179.11187    -0.00000    -0.88813
406199718.77989    -0.00000    179.11022    -104.01881    179.11022    -104.01881    179.11022    -0.00000    -0.88978
406886808.01838    -0.00000    179.10857    -103.98658    179.10857    -103.98658    179.10857    -0.00000    -0.89143
407575059.47240    -0.00000    179.10691    -103.95435    179.10691    -103.95435    179.10691    -0.00000    -0.89309
408264475.10785    -0.00000    179.10525    -103.92210    179.10525    -103.92210    179.10525    -0.00000    -0.89475
408955056.89393    -0.00000    179.10358    -103.88985    179.10358    -103.88985    179.10358    -0.00000    -0.89642
409646806.80322    -0.00000    179.10192    -103.85758    179.10192    -103.85758    179.10192    -0.00000    -0.89808
410339726.81159    -0.00000    179.10025    -103.82530    179.10025    -103.82530    179.10025    -0.00000    -0.89975
411033818.89827    -0.00000    179.09857    -103.79301    179.09857    -103.79301    179.09857    -0.00000    -0.90143
411729085.04584    -0.00000    179.09689    -103.76072    179.09689    -103.76072    179.09689    -0.00000    -0.90311
412425527.24023    -0.00000    179.09521    -103.72841    179.09521    -103.72841    179.09521    -0.00000    -0.90479
413123147.47073    -0.00000    179.09353    -103.69609    179.09353    -103.69609    179.09353    -0.00000    -0.90647
413821947.73000    -0.00000    179.09184    -103.66376    179.09184    -103.66376    179.09184    -0.00000    -0.90816
414521930.01406    -0.00000    179.09014    -103.63142    179.09014    -103.63142    179.09014    -0.00000    -0.90986
415223096.32231    -0.00000    179.08845    -103.59907    179.08845    -103.59907    179.08845    -0.00000    -0.91155
415925448.65754    -0.00000    179.08675    -103.56671    179.08675    -103.56671    179.08675    -0.00000    -0.91325
416628989.02592    -0.00000    179.08504    -103.53434    179.08504    -103.53434    179.08504    -0.00000    -0.91496
417333719.43701    -0.00000    179.08333    -103.50196    179.08333    -103.50196    179.08333    -0.00000    -0.91667
418039641.90379    -0.00000    179.08162    -103.46956    179.08162    -103.46956    179.08162    -0.00000    -0.91838
418746758.44261    -0.00000    179.07991    -103.43716    179.07991    -103.43716    179.07991    -0.00000    -0.92009
419455071.07326    -0.00000    179.07819    -103.40475    179.07819    -103.40475    179.07819    -0.00000    -0.92181
420164581.81893    -0.00000    179.07646    -103.37232    179.07646    -103.37232    179.07646    -0.00000    -0.92354
420875292.70625    -0.00000    179.07474    -103.33988    179.07474    -103.33988    179.07474    -0.00000    -0.92526
421587205.76526    -0.00000    179.07301    -103.30744    179.07301    -103.30744    179.07301    -0.00000    -0.92699
422300323.02943    -0.00000    179.07127    -103.27498    179.07127    -103.27498    179.07127    -0.00000    -0.92873
423014646.53570    -0.00000    179.06953    -103.24251    179.06953    -103.24251    179.06953    -0.00000    -0.93047
423730178.32443    -0.00000    179.06779    -103.21003    179.06779    -103.21003    179.06779    -0.00000    -0.93221
424446920.43942    -0.00000    179.06604    -103.17754    179.06604    -103.17754    179.06604    -0.00000    -0.93396
425164874.92797    -0.00000    179.06429    -103.14503    179.06429    -103.14503    179.06429    -0.00000    -0.93571
425884043.84080    -0.00000    179.06254    -103.11252    179.06254    -103.11252    179.06254    -0.00000    -0.93746
426604429.23212    -0.00000    179.06078    -103.07999    179.06078    -103.07999    179.06078    -0.00000    -0.93922
427326033.15961    -0.00000    179.05902    -103.04746    179.05902    -103.04746    179.05902    -0.00000    -0.94098
428048857.68443    -0.00000    179.05725    -103.01491    179.05725    -103.01491    179.05725    -0.00000    -0.94275
428772904.87123    -0.00000    179.05548    -102.98235    179.05548    -102.98235    179.05548    -0.00000    -0.94452
429498176.78815    -0.00000    179.05371    -102.94978    179.05371    -102.94978    179.05371    -0.00000    -0.94629
430224675.50683    -0.00000    179.05193    -102.91720    179.05193    -102.91720    179.05193    -0.00000    -0.94807
430952403.10242    -0.00000    179.05015    -102.88460    179.05015    -102.88460    179.05015    -0.00000    -0.94985
431681361.65355    -0.00000    179.04837    -102.85200    179.04837    -102.85200    179.04837    -0.00000    -0.95163
432411553.24240    -0.00000    179.04658    -102.81938    179.04658    -102.81938    179.04658    -0.00000    -0.95342
433142979.95467    -0.00000    179.04478    -102.78675    179.04478    -102.78675    179.04478    -0.00000    -0.95522
433875643.87957    -0.00000    179.04299    -102.75411    179.04299    -102.75411    179.04299    -0.00000    -0.95701
434609547.10985    -0.00000    179.04118    -102.72146    179.04118    -102.72146    179.04118    -0.00000    -0.95882
435344691.74181    -0.00000    179.03938    -102.68880    179.03938    -102.68880    179.03938    -0.00000    -0.96062
436081079.87528    -0.00000    179.03757    -102.65612    179.03757    -102.65612    179.03757    -0.00000    -0.96243
436818713.61366    -0.00000    179.03576    -102.62344    179.03576    -102.62344    179.03576    -0.00000    -0.96424
437557595.06388    -0.00000    179.03394    -102.59074    179.03394    -102.59074    179.03394    -0.00000    -0.96606
438297726.33648    -0.00000    179.03212    -102.55803    179.03212    -102.55803    179.03212    -0.00000    -0.96788
439039109.54552    -0.00000    179.03029    -102.52530    179.03029    -102.52530    179.03029    -0.00000    -0.96971
439781746.80866    -0.00000    179.02846    -102.49257    179.02846    -102.49257    179.02846    -0.00000    -0.97154
440525640.24715    -0.00000    179.02663    -102.45982    179.02663    -102.45982    179.02663    -0.00000    -0.97337
441270791.98581    -0.00000    179.02479    -102.42706    179.02479    -102.42706    179.02479    -0.00000    -0.97521
442017204.15307    -0.00000    179.02294    -102.39429    179.02294    -102.39429    179.02294    -0.00000    -0.97706
442764878.88094    -0.00000    179.02110    -102.36151    179.02110    -102.36151    179.02110    -0.00000    -0.97890
443513818.30506    -0.00000    179.01925    -102.32871    179.01925    -102.32871    179.01925    -0.00000    -0.98075
444264024.56466    -0.00000    179.01739    -102.29590    179.01739    -102.29590    179.01739    -0.00000    -0.98261
445015499.80261    -0.00000    179.01553    -102.26308    179.01553    -102.26308    179.01553    -0.00000    -0.98447
445768246.16540    -0.00000    179.01367    -102.23025    179.01367    -102.23025    179.01367    -0.00000    -0.98633
446522265.80313    -0.00000    179.01180    -102.19740    179.01180    -102.19740    179.01180    -0.00000    -0.98820
447277560.86956    -0.00000    179.00993    -102.16454    179.00993    -102.16454    179.00993    -0.00000    -0.99007
448034133.52208    -0.00000    179.00805    -102.13167    179.00805    -102.13167    179.00805    -0.00000    -0.99195
448791985.92174    -0.00000    179.00617    -102.09879    179.00617    -102.09879    179.00617    -0.00000    -0.99383
449551120.23324    -0.00000    179.00429    -102.06589    179.00429    -102.06589    179.00429    -0.00000    -0.99571
450311538.62494    -0.00000    179.00240    -102.03299    179.00240    -102.03299    179.00240    -0.00000    -0.99760
451073243.26886    -0.00000    179.00050    -102.00006    179.00050    -102.00006    179.00050    -0.00000    -0.99950
451836236.34072    -0.00000    178.99861    -101.96713    178.99861    -101.96713    178.99861    -0.00000    -1.00139
452600520.01990    -0.00000    178.99670    -101.93418    178.99670    -101.93418    178.99670    -0.00000    -1.00330
453366096.48946    -0.00000    178.99480    -101.90122    178.99480    -101.90122    178.99480    -0.00000    -1.00520
454132967.93617    -0.00000    178.99289    -101.86825    178.99289    -101.86825    178.99289    -0.00000    -1.00711
454901136.55049    -0.00000    178.99097    -101.83527    178.99097    -101.83527    178.99097    -0.00000    -1.00903
455670604.52658    -0.00000    178.98905    -101.80227    178.98905    -101.80227    178.98905    -0.00000    -1.01095
456441374.06233    -0.00000    178.98713    -101.76926    178.98713    -101.76926    178.98713    -0.00000    -1.01287
457213447.35933    -0.00000    178.98520    -101.73623    178.98520    -101.73623    178.98520    -0.00000    -1.01480
457986826.62291    -0.00000    178.98326    -101.70319    178.98326    -101.70319    178.98326    -0.00000    -1.01674
458761514.06210    -0.00000    178.98133    -101.67014    178.98133    -101.67014    178.98133    -0.00000    -1.01867
