! rf-tools.com
! Date: Thu Jan 30 2020 11:09:46 GMT+0000 (格林尼治标准时间)
# Hz S DB R 50.00
!Frequency        S11 dB       S11 Deg       S21 dB      S21 Deg      S12 dB      S12 Deg      S22 dB       S22 Deg      
347119048.27170    -0.00000    179.32211    -128.58367    -90.67789    -128.58367    -90.67789    -0.00000    179.32211
347706202.20489    -0.00000    179.32088    -128.53651    -90.67912    -128.53651    -90.67912    -0.00000    179.32088
348294349.31245    -0.00000    179.31965    -128.48935    -90.68035    -128.48935    -90.68035    -0.00000    179.31965
348883491.27433    -0.00000    179.31842    -128.44217    -90.68158    -128.44217    -90.68158    -0.00000    179.31842
349473629.77335    -0.00000    179.31718    -128.39498    -90.68282    -128.39498    -90.68282    -0.00000    179.31718
350064766.49514    -0.00000    179.31595    -128.34778    -90.68405    -128.34778    -90.68405    -0.00000    179.31595
350656903.12821    -0.00000    179.31471    -128.30057    -90.68529    -128.30057    -90.68529    -0.00000    179.31471
351250041.36392    -0.00000    179.31346    -128.25335    -90.68654    -128.25335    -90.68654    -0.00000    179.31346
351844182.89648    -0.00000    179.31222    -128.20612    -90.68778    -128.20612    -90.68778    -0.00000    179.31222
352439329.42297    -0.00000    179.31097    -128.15888    -90.68903    -128.15888    -90.68903    -0.00000    179.31097
353035482.64334    -0.00000    179.30972    -128.11162    -90.69028    -128.11162    -90.69028    -0.00000    179.30972
353632644.26044    -0.00000    179.30846    -128.06435    -90.69154    -128.06435    -90.69154    -0.00000    179.30846
354230815.97995    -0.00000    179.30721    -128.01708    -90.69279    -128.01708    -90.69279    -0.00000    179.30721
354829999.51049    -0.00000    179.30595    -127.96979    -90.69405    -127.96979    -90.69405    -0.00000    179.30595
355430196.56353    -0.00000    179.30469    -127.92249    -90.69531    -127.92249    -90.69531    -0.00000    179.30469
356031408.85345    -0.00000    179.30343    -127.87517    -90.69657    -127.87517    -90.69657    -0.00000    179.30343
356633638.09753    -0.00000    179.30216    -127.82785    -90.69784    -127.82785    -90.69784    -0.00000    179.30216
357236886.01596    -0.00000    179.30089    -127.78052    -90.69911    -127.78052    -90.69911    -0.00000    179.30089
357841154.33182    -0.00000    179.29962    -127.73317    -90.70038    -127.73317    -90.70038    -0.00000    179.29962
358446444.77114    -0.00000    179.29834    -127.68581    -90.70166    -127.68581    -90.70166    -0.00000    179.29834
359052759.06283    -0.00000    179.29707    -127.63844    -90.70293    -127.63844    -90.70293    -0.00000    179.29707
359660098.93875    -0.00000    179.29579    -127.59106    -90.70421    -127.59106    -90.70421    -0.00000    179.29579
360268466.13368    -0.00000    179.29451    -127.54367    -90.70549    -127.54367    -90.70549    -0.00000    179.29451
360877862.38533    -0.00000    179.29322    -127.49626    -90.70678    -127.49626    -90.70678    -0.00000    179.29322
361488289.43437    -0.00000    179.29193    -127.44885    -90.70807    -127.44885    -90.70807    -0.00000    179.29193
362099749.02438    -0.00000    179.29064    -127.40142    -90.70936    -127.40142    -90.70936    -0.00000    179.29064
362712242.90193    -0.00000    179.28935    -127.35398    -90.71065    -127.35398    -90.71065    -0.00000    179.28935
363325772.81651    -0.00000    179.28806    -127.30652    -90.71194    -127.30652    -90.71194    -0.00000    179.28806
363940340.52059    -0.00000    179.28676    -127.25906    -90.71324    -127.25906    -90.71324    -0.00000    179.28676
364555947.76959    -0.00000    179.28546    -127.21158    -90.71454    -127.21158    -90.71454    -0.00000    179.28546
365172596.32192    -0.00000    179.28415    -127.16409    -90.71585    -127.16409    -90.71585    -0.00000    179.28415
365790287.93893    -0.00000    179.28285    -127.11659    -90.71715    -127.11659    -90.71715    -0.00000    179.28285
366409024.38499    -0.00000    179.28154    -127.06908    -90.71846    -127.06908    -90.71846    -0.00000    179.28154
367028807.42742    -0.00000    179.28023    -127.02155    -90.71977    -127.02155    -90.71977    -0.00000    179.28023
367649638.83655    -0.00000    179.27891    -126.97402    -90.72109    -126.97402    -90.72109    -0.00000    179.27891
368271520.38570    -0.00000    179.27760    -126.92647    -90.72240    -126.92647    -90.72240    -0.00000    179.27760
368894453.85118    -0.00000    179.27628    -126.87890    -90.72372    -126.87890    -90.72372    -0.00000    179.27628
369518441.01233    -0.00000    179.27495    -126.83133    -90.72505    -126.83133    -90.72505    -0.00000    179.27495
370143483.65147    -0.00000    179.27363    -126.78374    -90.72637    -126.78374    -90.72637    -0.00000    179.27363
370769583.55394    -0.00000    179.27230    -126.73614    -90.72770    -126.73614    -90.72770    -0.00000    179.27230
371396742.50812    -0.00000    179.27097    -126.68853    -90.72903    -126.68853    -90.72903    -0.00000    179.27097
372024962.30540    -0.00000    179.26964    -126.64091    -90.73036    -126.64091    -90.73036    -0.00000    179.26964
372654244.74020    -0.00000    179.26830    -126.59327    -90.73170    -126.59327    -90.73170    -0.00000    179.26830
373284591.60998    -0.00000    179.26696    -126.54562    -90.73304    -126.54562    -90.73304    -0.00000    179.26696
373916004.71524    -0.00000    179.26562    -126.49796    -90.73438    -126.49796    -90.73438    -0.00000    179.26562
374548485.85952    -0.00000    179.26427    -126.45028    -90.73573    -126.45028    -90.73573    -0.00000    179.26427
375182036.84941    -0.00000    179.26293    -126.40259    -90.73707    -126.40259    -90.73707    -0.00000    179.26293
375816659.49456    -0.00000    179.26158    -126.35489    -90.73842    -126.35489    -90.73842    -0.00000    179.26158
376452355.60769    -0.00000    179.26022    -126.30718    -90.73978    -126.30718    -90.73978    -0.00000    179.26022
377089127.00458    -0.00000    179.25887    -126.25945    -90.74113    -126.25945    -90.74113    -0.00000    179.25887
377726975.50407    -0.00000    179.25751    -126.21171    -90.74249    -126.21171    -90.74249    -0.00000    179.25751
378365902.92808    -0.00000    179.25614    -126.16396    -90.74386    -126.16396    -90.74386    -0.00000    179.25614
379005911.10163    -0.00000    179.25478    -126.11619    -90.74522    -126.11619    -90.74522    -0.00000    179.25478
379647001.85281    -0.00000    179.25341    -126.06841    -90.74659    -126.06841    -90.74659    -0.00000    179.25341
380289177.01281    -0.00000    179.25204    -126.02062    -90.74796    -126.02062    -90.74796    -0.00000    179.25204
380932438.41590    -0.00000    179.25067    -125.97281    -90.74933    -125.97281    -90.74933    -0.00000    179.25067
381576787.89949    -0.00000    179.24929    -125.92499    -90.75071    -125.92499    -90.75071    -0.00000    179.24929
382222227.30405    -0.00000    179.24791    -125.87716    -90.75209    -125.87716    -90.75209    -0.00000    179.24791
382868758.47320    -0.00000    179.24653    -125.82931    -90.75347    -125.82931    -90.75347    -0.00000    179.24653
383516383.25367    -0.00000    179.24514    -125.78145    -90.75486    -125.78145    -90.75486    -0.00000    179.24514
384165103.49530    -0.00000    179.24376    -125.73358    -90.75624    -125.73358    -90.75624    -0.00000    179.24376
384814921.05108    -0.00000    179.24237    -125.68569    -90.75763    -125.68569    -90.75763    -0.00000    179.24237
385465837.77711    -0.00000    179.24097    -125.63779    -90.75903    -125.63779    -90.75903    -0.00000    179.24097
386117855.53266    -0.00000    179.23957    -125.58988    -90.76043    -125.58988    -90.76043    -0.00000    179.23957
386770976.18011    -0.00000    179.23817    -125.54195    -90.76183    -125.54195    -90.76183    -0.00000    179.23817
387425201.58502    -0.00000    179.23677    -125.49401    -90.76323    -125.49401    -90.76323    -0.00000    179.23677
388080533.61609    -0.00000    179.23537    -125.44606    -90.76463    -125.44606    -90.76463    -0.00000    179.23537
388736974.14519    -0.00000    179.23396    -125.39809    -90.76604    -125.39809    -90.76604    -0.00000    179.23396
389394525.04734    -0.00000    179.23254    -125.35011    -90.76746    -125.35011    -90.76746    -0.00000    179.23254
390053188.20075    -0.00000    179.23113    -125.30211    -90.76887    -125.30211    -90.76887    -0.00000    179.23113
390712965.48680    -0.00000    179.22971    -125.25410    -90.77029    -125.25410    -90.77029    -0.00000    179.22971
391373858.79005    -0.00000    179.22829    -125.20607    -90.77171    -125.20607    -90.77171    -0.00000    179.22829
392035869.99825    -0.00000    179.22687    -125.15803    -90.77313    -125.15803    -90.77313    -0.00000    179.22687
392699001.00235    -0.00000    179.22544    -125.10998    -90.77456    -125.10998    -90.77456    -0.00000    179.22544
393363253.69648    -0.00000    179.22401    -125.06191    -90.77599    -125.06191    -90.77599    -0.00000    179.22401
394028629.97799    -0.00000    179.22258    -125.01383    -90.77742    -125.01383    -90.77742    -0.00000    179.22258
394695131.74743    -0.00000    179.22114    -124.96574    -90.77886    -124.96574    -90.77886    -0.00000    179.22114
395362760.90858    -0.00000    179.21970    -124.91763    -90.78030    -124.91763    -90.78030    -0.00000    179.21970
396031519.36842    -0.00000    179.21826    -124.86950    -90.78174    -124.86950    -90.78174    -0.00000    179.21826
396701409.03717    -0.00000    179.21681    -124.82136    -90.78319    -124.82136    -90.78319    -0.00000    179.21681
397372431.82828    -0.00000    179.21536    -124.77321    -90.78464    -124.77321    -90.78464    -0.00000    179.21536
398044589.65843    -0.00000    179.21391    -124.72504    -90.78609    -124.72504    -90.78609    -0.00000    179.21391
398717884.44754    -0.00000    179.21246    -124.67686    -90.78754    -124.67686    -90.78754    -0.00000    179.21246
399392318.11879    -0.00000    179.21100    -124.62866    -90.78900    -124.62866    -90.78900    -0.00000    179.21100
400067892.59860    -0.00000    179.20954    -124.58045    -90.79046    -124.58045    -90.79046    -0.00000    179.20954
400744609.81666    -0.00000    179.20807    -124.53222    -90.79193    -124.53222    -90.79193    -0.00000    179.20807
401422471.70591    -0.00000    179.20661    -124.48398    -90.79339    -124.48398    -90.79339    -0.00000    179.20661
402101480.20259    -0.00000    179.20514    -124.43572    -90.79486    -124.43572    -90.79486    -0.00000    179.20514
402781637.24616    -0.00000    179.20366    -124.38745    -90.79634    -124.38745    -90.79634    -0.00000    179.20366
403462944.77943    -0.00000    179.20218    -124.33916    -90.79782    -124.33916    -90.79782    -0.00000    179.20218
404145404.74843    -0.00000    179.20070    -124.29086    -90.79930    -124.29086    -90.79930    -0.00000    179.20070
404829019.10252    -0.00000    179.19922    -124.24255    -90.80078    -124.24255    -90.80078    -0.00000    179.19922
405513789.79436    -0.00000    179.19773    -124.19421    -90.80227    -124.19421    -90.80227    -0.00000    179.19773
406199718.77989    -0.00000    179.19624    -124.14587    -90.80376    -124.14587    -90.80376    -0.00000    179.19624
406886808.01838    -0.00000    179.19475    -124.09750    -90.80525    -124.09750    -90.80525    -0.00000    179.19475
407575059.47240    -0.00000    179.19325    -124.04913    -90.80675    -124.04913    -90.80675    -0.00000    179.19325
408264475.10785    -0.00000    179.19175    -124.00073    -90.80825    -124.00073    -90.80825    -0.00000    179.19175
408955056.89393    -0.00000    179.19025    -123.95232    -90.80975    -123.95232    -90.80975    -0.00000    179.19025
409646806.80322    -0.00000    179.18875    -123.90390    -90.81125    -123.90390    -90.81125    -0.00000    179.18875
410339726.81159    -0.00000    179.18724    -123.85546    -90.81276    -123.85546    -90.81276    -0.00000    179.18724
411033818.89827    -0.00000    179.18572    -123.80700    -90.81428    -123.80700    -90.81428    -0.00000    179.18572
411729085.04584    -0.00000    179.18421    -123.75853    -90.81579    -123.75853    -90.81579    -0.00000    179.18421
412425527.24023    -0.00000    179.18269    -123.71004    -90.81731    -123.71004    -90.81731    -0.00000    179.18269
413123147.47073    -0.00000    179.18116    -123.66154    -90.81884    -123.66154    -90.81884    -0.00000    179.18116
413821947.73000    -0.00000    179.17964    -123.61302    -90.82036    -123.61302    -90.82036    -0.00000    179.17964
414521930.01406    -0.00000    179.17811    -123.56449    -90.82189    -123.56449    -90.82189    -0.00000    179.17811
415223096.32231    -0.00000    179.17658    -123.51594    -90.82342    -123.51594    -90.82342    -0.00000    179.17658
415925448.65754    -0.00000    179.17504    -123.46737    -90.82496    -123.46737    -90.82496    -0.00000    179.17504
416628989.02592    -0.00000    179.17350    -123.41879    -90.82650    -123.41879    -90.82650    -0.00000    179.17350
417333719.43701    -0.00000    179.17196    -123.37019    -90.82804    -123.37019    -90.82804    -0.00000    179.17196
418039641.90379    -0.00000    179.17041    -123.32157    -90.82959    -123.32157    -90.82959    -0.00000    179.17041
418746758.44261    -0.00000    179.16886    -123.27294    -90.83114    -123.27294    -90.83114    -0.00000    179.16886
419455071.07326    -0.00000    179.16731    -123.22429    -90.83269    -123.22429    -90.83269    -0.00000    179.16731
420164581.81893    -0.00000    179.16575    -123.17563    -90.83425    -123.17563    -90.83425    -0.00000    179.16575
420875292.70625    -0.00000    179.16419    -123.12695    -90.83581    -123.12695    -90.83581    -0.00000    179.16419
421587205.76526    -0.00000    179.16263    -123.07825    -90.83737    -123.07825    -90.83737    -0.00000    179.16263
422300323.02943    -0.00000    179.16106    -123.02953    -90.83894    -123.02953    -90.83894    -0.00000    179.16106
423014646.53570    -0.00000    179.15949    -122.98080    -90.84051    -122.98080    -90.84051    -0.00000    179.15949
423730178.32443    -0.00000    179.15792    -122.93206    -90.84208    -122.93206    -90.84208    -0.00000    179.15792
424446920.43942    -0.00000    179.15634    -122.88329    -90.84366    -122.88329    -90.84366    -0.00000    179.15634
425164874.92797    -0.00000    179.15476    -122.83451    -90.84524    -122.83451    -90.84524    -0.00000    179.15476
425884043.84080    -0.00000    179.15317    -122.78571    -90.84683    -122.78571    -90.84683    -0.00000    179.15317
426604429.23212    -0.00000    179.15159    -122.73690    -90.84841    -122.73690    -90.84841    -0.00000    179.15159
427326033.15961    -0.00000    179.14999    -122.68806    -90.85001    -122.68806    -90.85001    -0.00000    179.14999
428048857.68443    -0.00000    179.14840    -122.63922    -90.85160    -122.63922    -90.85160    -0.00000    179.14840
428772904.87123    -0.00000    179.14680    -122.59035    -90.85320    -122.59035    -90.85320    -0.00000    179.14680
429498176.78815    -0.00000    179.14520    -122.54146    -90.85480    -122.54146    -90.85480    -0.00000    179.14520
430224675.50683    -0.00000    179.14359    -122.49256    -90.85641    -122.49256    -90.85641    -0.00000    179.14359
430952403.10242    -0.00000    179.14198    -122.44365    -90.85802    -122.44365    -90.85802    -0.00000    179.14198
431681361.65355    -0.00000    179.14037    -122.39471    -90.85963    -122.39471    -90.85963    -0.00000    179.14037
432411553.24240    -0.00000    179.13875    -122.34576    -90.86125    -122.34576    -90.86125    -0.00000    179.13875
433142979.95467    -0.00000    179.13713    -122.29679    -90.86287    -122.29679    -90.86287    -0.00000    179.13713
433875643.87957    -0.00000    179.13551    -122.24780    -90.86449    -122.24780    -90.86449    -0.00000    179.13551
434609547.10985    -0.00000    179.13388    -122.19879    -90.86612    -122.19879    -90.86612    -0.00000    179.13388
435344691.74181    -0.00000    179.13225    -122.14977    -90.86775    -122.14977    -90.86775    -0.00000    179.13225
436081079.87528    -0.00000    179.13062    -122.10072    -90.86938    -122.10072    -90.86938    -0.00000    179.13062
436818713.61366    -0.00000    179.12898    -122.05166    -90.87102    -122.05166    -90.87102    -0.00000    179.12898
437557595.06388    -0.00000    179.12734    -122.00259    -90.87266    -122.00259    -90.87266    -0.00000    179.12734
438297726.33648    -0.00000    179.12569    -121.95349    -90.87431    -121.95349    -90.87431    -0.00000    179.12569
439039109.54552    -0.00000    179.12404    -121.90438    -90.87596    -121.90438    -90.87596    -0.00000    179.12404
439781746.80866    -0.00000    179.12239    -121.85524    -90.87761    -121.85524    -90.87761    -0.00000    179.12239
440525640.24715    -0.00000    179.12073    -121.80609    -90.87927    -121.80609    -90.87927    -0.00000    179.12073
441270791.98581    -0.00000    179.11907    -121.75693    -90.88093    -121.75693    -90.88093    -0.00000    179.11907
442017204.15307    -0.00000    179.11741    -121.70774    -90.88259    -121.70774    -90.88259    -0.00000    179.11741
442764878.88094    -0.00000    179.11574    -121.65853    -90.88426    -121.65853    -90.88426    -0.00000    179.11574
443513818.30506    -0.00000    179.11407    -121.60931    -90.88593    -121.60931    -90.88593    -0.00000    179.11407
444264024.56466    -0.00000    179.11239    -121.56007    -90.88761    -121.56007    -90.88761    -0.00000    179.11239
445015499.80261    -0.00000    179.11071    -121.51081    -90.88929    -121.51081    -90.88929    -0.00000    179.11071
445768246.16540    -0.00000    179.10903    -121.46153    -90.89097    -121.46153    -90.89097    -0.00000    179.10903
446522265.80313    -0.00000    179.10734    -121.41223    -90.89266    -121.41223    -90.89266    -0.00000    179.10734
447277560.86956    -0.00000    179.10565    -121.36291    -90.89435    -121.36291    -90.89435    -0.00000    179.10565
448034133.52208    -0.00000    179.10395    -121.31357    -90.89605    -121.31357    -90.89605    -0.00000    179.10395
448791985.92174    -0.00000    179.10225    -121.26422    -90.89775    -121.26422    -90.89775    -0.00000    179.10225
449551120.23324    -0.00000    179.10055    -121.21484    -90.89945    -121.21484    -90.89945    -0.00000    179.10055
450311538.62494    -0.00000    179.09884    -121.16545    -90.90116    -121.16545    -90.90116    -0.00000    179.09884
451073243.26886    -0.00000    179.09713    -121.11604    -90.90287    -121.11604    -90.90287    -0.00000    179.09713
451836236.34072    -0.00000    179.09542    -121.06660    -90.90458    -121.06660    -90.90458    -0.00000    179.09542
452600520.01990    -0.00000    179.09370    -121.01715    -90.90630    -121.01715    -90.90630    -0.00000    179.09370
453366096.48946    -0.00000    179.09198    -120.96768    -90.90802    -120.96768    -90.90802    -0.00000    179.09198
454132967.93617    -0.00000    179.09025    -120.91819    -90.90975    -120.91819    -90.90975    -0.00000    179.09025
454901136.55049    -0.00000    179.08852    -120.86868    -90.91148    -120.86868    -90.91148    -0.00000    179.08852
455670604.52658    -0.00000    179.08679    -120.81915    -90.91321    -120.81915    -90.91321    -0.00000    179.08679
456441374.06233    -0.00000    179.08505    -120.76960    -90.91495    -120.76960    -90.91495    -0.00000    179.08505
457213447.35933    -0.00000    179.08331    -120.72003    -90.91669    -120.72003    -90.91669    -0.00000    179.08331
