! rf-tools.com
! Date: Thu Jan 30 2020 11:21:33 GMT+0000 (格林尼治标准时间)
# Hz S DB R 50.00
!Frequency        S11 dB       S11 Deg       S21 dB      S21 Deg      S12 dB      S12 Deg      S22 dB       S22 Deg      
347119048.27170    -0.00000    178.81604    -74.49762    88.81604    -74.49762    88.81604    -0.00000    178.81604
347706202.20489    -0.00000    178.81389    -74.48192    88.81389    -74.48192    88.81389    -0.00000    178.81389
348294349.31245    -0.00000    178.81175    -74.46622    88.81175    -74.46622    88.81175    -0.00000    178.81175
348883491.27433    -0.00000    178.80959    -74.45051    88.80959    -74.45051    88.80959    -0.00000    178.80959
349473629.77335    -0.00000    178.80743    -74.43480    88.80743    -74.43480    88.80743    -0.00000    178.80743
350064766.49514    -0.00000    178.80527    -74.41909    88.80527    -74.41909    88.80527    -0.00000    178.80527
350656903.12821    -0.00000    178.80311    -74.40337    88.80311    -74.40337    88.80311    -0.00000    178.80311
351250041.36392    -0.00000    178.80094    -74.38765    88.80094    -74.38765    88.80094    -0.00000    178.80094
351844182.89648    -0.00000    178.79876    -74.37192    88.79876    -74.37192    88.79876    -0.00000    178.79876
352439329.42297    -0.00000    178.79658    -74.35619    88.79658    -74.35619    88.79658    -0.00000    178.79658
353035482.64334    -0.00000    178.79440    -74.34046    88.79440    -74.34046    88.79440    -0.00000    178.79440
353632644.26044    -0.00000    178.79221    -74.32472    88.79221    -74.32472    88.79221    -0.00000    178.79221
354230815.97995    -0.00000    178.79001    -74.30898    88.79001    -74.30898    88.79001    -0.00000    178.79001
354829999.51049    -0.00000    178.78782    -74.29324    88.78782    -74.29324    88.78782    -0.00000    178.78782
355430196.56353    -0.00000    178.78561    -74.27749    88.78561    -74.27749    88.78561    -0.00000    178.78561
356031408.85345    -0.00000    178.78341    -74.26174    88.78341    -74.26174    88.78341    -0.00000    178.78341
356633638.09753    -0.00000    178.78119    -74.24599    88.78119    -74.24599    88.78119    -0.00000    178.78119
357236886.01596    -0.00000    178.77898    -74.23023    88.77898    -74.23023    88.77898    -0.00000    178.77898
357841154.33182    -0.00000    178.77676    -74.21446    88.77676    -74.21446    88.77676    -0.00000    178.77676
358446444.77114    -0.00000    178.77453    -74.19870    88.77453    -74.19870    88.77453    -0.00000    178.77453
359052759.06283    -0.00000    178.77230    -74.18293    88.77230    -74.18293    88.77230    -0.00000    178.77230
359660098.93875    -0.00000    178.77007    -74.16715    88.77007    -74.16715    88.77007    -0.00000    178.77007
360268466.13368    -0.00000    178.76783    -74.15137    88.76783    -74.15137    88.76783    -0.00000    178.76783
360877862.38533    -0.00000    178.76559    -74.13559    88.76559    -74.13559    88.76559    -0.00000    178.76559
361488289.43437    -0.00000    178.76334    -74.11981    88.76334    -74.11981    88.76334    -0.00000    178.76334
362099749.02438    -0.00000    178.76109    -74.10402    88.76109    -74.10402    88.76109    -0.00000    178.76109
362712242.90193    -0.00000    178.75883    -74.08822    88.75883    -74.08822    88.75883    -0.00000    178.75883
363325772.81651    -0.00000    178.75657    -74.07243    88.75657    -74.07243    88.75657    -0.00000    178.75657
363940340.52059    -0.00000    178.75430    -74.05663    88.75430    -74.05663    88.75430    -0.00000    178.75430
364555947.76959    -0.00000    178.75203    -74.04082    88.75203    -74.04082    88.75203    -0.00000    178.75203
365172596.32192    -0.00000    178.74975    -74.02501    88.74975    -74.02501    88.74975    -0.00000    178.74975
365790287.93893    -0.00000    178.74747    -74.00920    88.74747    -74.00920    88.74747    -0.00000    178.74747
366409024.38499    -0.00000    178.74518    -73.99338    88.74518    -73.99338    88.74518    -0.00000    178.74518
367028807.42742    -0.00000    178.74289    -73.97756    88.74289    -73.97756    88.74289    -0.00000    178.74289
367649638.83655    -0.00000    178.74060    -73.96173    88.74060    -73.96173    88.74060    -0.00000    178.74060
368271520.38570    -0.00000    178.73830    -73.94590    88.73830    -73.94590    88.73830    -0.00000    178.73830
368894453.85118    -0.00000    178.73599    -73.93007    88.73599    -73.93007    88.73599    -0.00000    178.73599
369518441.01233    -0.00000    178.73368    -73.91423    88.73368    -73.91423    88.73368    -0.00000    178.73368
370143483.65147    -0.00000    178.73137    -73.89839    88.73137    -73.89839    88.73137    -0.00000    178.73137
370769583.55394    -0.00000    178.72905    -73.88255    88.72905    -73.88255    88.72905    -0.00000    178.72905
371396742.50812    -0.00000    178.72672    -73.86670    88.72672    -73.86670    88.72672    -0.00000    178.72672
372024962.30540    -0.00000    178.72439    -73.85084    88.72439    -73.85084    88.72439    -0.00000    178.72439
372654244.74020    -0.00000    178.72206    -73.83499    88.72206    -73.83499    88.72206    -0.00000    178.72206
373284591.60998    -0.00000    178.71972    -73.81912    88.71972    -73.81912    88.71972    -0.00000    178.71972
373916004.71524    -0.00000    178.71738    -73.80326    88.71738    -73.80326    88.71738    -0.00000    178.71738
374548485.85952    -0.00000    178.71503    -73.78739    88.71503    -73.78739    88.71503    -0.00000    178.71503
375182036.84941    -0.00000    178.71267    -73.77151    88.71267    -73.77151    88.71267    -0.00000    178.71267
375816659.49456    -0.00000    178.71032    -73.75564    88.71032    -73.75564    88.71032    -0.00000    178.71032
376452355.60769    -0.00000    178.70795    -73.73975    88.70795    -73.73975    88.70795    -0.00000    178.70795
377089127.00458    -0.00000    178.70558    -73.72387    88.70558    -73.72387    88.70558    -0.00000    178.70558
377726975.50407    -0.00000    178.70321    -73.70797    88.70321    -73.70797    88.70321    -0.00000    178.70321
378365902.92808    -0.00000    178.70083    -73.69208    88.70083    -73.69208    88.70083    -0.00000    178.70083
379005911.10163    -0.00000    178.69845    -73.67618    88.69845    -73.67618    88.69845    -0.00000    178.69845
379647001.85281    -0.00000    178.69606    -73.66027    88.69606    -73.66027    88.69606    -0.00000    178.69606
380289177.01281    -0.00000    178.69367    -73.64437    88.69367    -73.64437    88.69367    -0.00000    178.69367
380932438.41590    -0.00000    178.69127    -73.62845    88.69127    -73.62845    88.69127    -0.00000    178.69127
381576787.89949    -0.00000    178.68886    -73.61254    88.68886    -73.61254    88.68886    -0.00000    178.68886
382222227.30405    -0.00000    178.68645    -73.59661    88.68645    -73.59661    88.68645    -0.00000    178.68645
382868758.47320    -0.00000    178.68404    -73.58069    88.68404    -73.58069    88.68404    -0.00000    178.68404
383516383.25367    -0.00000    178.68162    -73.56476    88.68162    -73.56476    88.68162    -0.00000    178.68162
384165103.49530    -0.00000    178.67920    -73.54882    88.67920    -73.54882    88.67920    -0.00000    178.67920
384814921.05108    -0.00000    178.67677    -73.53288    88.67677    -73.53288    88.67677    -0.00000    178.67677
385465837.77711    -0.00000    178.67433    -73.51694    88.67433    -73.51694    88.67433    -0.00000    178.67433
386117855.53266    -0.00000    178.67189    -73.50099    88.67189    -73.50099    88.67189    -0.00000    178.67189
386770976.18011    -0.00000    178.66945    -73.48504    88.66945    -73.48504    88.66945    -0.00000    178.66945
387425201.58502    -0.00000    178.66700    -73.46908    88.66700    -73.46908    88.66700    -0.00000    178.66700
388080533.61609    -0.00000    178.66454    -73.45312    88.66454    -73.45312    88.66454    -0.00000    178.66454
388736974.14519    -0.00000    178.66208    -73.43716    88.66208    -73.43716    88.66208    -0.00000    178.66208
389394525.04734    -0.00000    178.65961    -73.42118    88.65961    -73.42118    88.65961    -0.00000    178.65961
390053188.20075    -0.00000    178.65714    -73.40521    88.65714    -73.40521    88.65714    -0.00000    178.65714
390712965.48680    -0.00000    178.65467    -73.38923    88.65467    -73.38923    88.65467    -0.00000    178.65467
391373858.79005    -0.00000    178.65219    -73.37325    88.65219    -73.37325    88.65219    -0.00000    178.65219
392035869.99825    -0.00000    178.64970    -73.35726    88.64970    -73.35726    88.64970    -0.00000    178.64970
392699001.00235    -0.00000    178.64721    -73.34126    88.64721    -73.34126    88.64721    -0.00000    178.64721
393363253.69648    -0.00000    178.64471    -73.32526    88.64471    -73.32526    88.64471    -0.00000    178.64471
394028629.97799    -0.00000    178.64221    -73.30926    88.64221    -73.30926    88.64221    -0.00000    178.64221
394695131.74743    -0.00000    178.63970    -73.29325    88.63970    -73.29325    88.63970    -0.00000    178.63970
395362760.90858    -0.00000    178.63718    -73.27724    88.63718    -73.27724    88.63718    -0.00000    178.63718
396031519.36842    -0.00000    178.63466    -73.26123    88.63466    -73.26123    88.63466    -0.00000    178.63466
396701409.03717    -0.00000    178.63214    -73.24520    88.63214    -73.24520    88.63214    -0.00000    178.63214
397372431.82828    -0.00000    178.62961    -73.22918    88.62961    -73.22918    88.62961    -0.00000    178.62961
398044589.65843    -0.00000    178.62707    -73.21315    88.62707    -73.21315    88.62707    -0.00000    178.62707
398717884.44754    -0.00000    178.62453    -73.19711    88.62453    -73.19711    88.62453    -0.00000    178.62453
399392318.11879    -0.00000    178.62199    -73.18107    88.62199    -73.18107    88.62199    -0.00000    178.62199
400067892.59860    -0.00000    178.61943    -73.16502    88.61943    -73.16502    88.61943    -0.00000    178.61943
400744609.81666    -0.00000    178.61688    -73.14897    88.61688    -73.14897    88.61688    -0.00000    178.61688
401422471.70591    -0.00000    178.61431    -73.13292    88.61431    -73.13292    88.61431    -0.00000    178.61431
402101480.20259    -0.00000    178.61175    -73.11686    88.61175    -73.11686    88.61175    -0.00000    178.61175
402781637.24616    -0.00000    178.60917    -73.10079    88.60917    -73.10079    88.60917    -0.00000    178.60917
403462944.77943    -0.00000    178.60659    -73.08472    88.60659    -73.08472    88.60659    -0.00000    178.60659
404145404.74843    -0.00000    178.60401    -73.06865    88.60401    -73.06865    88.60401    -0.00000    178.60401
404829019.10252    -0.00000    178.60142    -73.05257    88.60142    -73.05257    88.60142    -0.00000    178.60142
405513789.79436    -0.00000    178.59882    -73.03648    88.59882    -73.03648    88.59882    -0.00000    178.59882
406199718.77989    -0.00000    178.59622    -73.02039    88.59622    -73.02039    88.59622    -0.00000    178.59622
406886808.01838    -0.00000    178.59361    -73.00430    88.59361    -73.00430    88.59361    -0.00000    178.59361
407575059.47240    -0.00000    178.59100    -72.98820    88.59100    -72.98820    88.59100    -0.00000    178.59100
408264475.10785    -0.00000    178.58838    -72.97210    88.58838    -72.97210    88.58838    -0.00000    178.58838
408955056.89393    -0.00000    178.58575    -72.95599    88.58575    -72.95599    88.58575    -0.00000    178.58575
409646806.80322    -0.00000    178.58312    -72.93987    88.58312    -72.93987    88.58312    -0.00000    178.58312
410339726.81159    -0.00000    178.58048    -72.92375    88.58048    -72.92375    88.58048    -0.00000    178.58048
411033818.89827    -0.00000    178.57784    -72.90763    88.57784    -72.90763    88.57784    -0.00000    178.57784
411729085.04584    -0.00000    178.57519    -72.89150    88.57519    -72.89150    88.57519    -0.00000    178.57519
412425527.24023    -0.00000    178.57254    -72.87536    88.57254    -72.87536    88.57254    -0.00000    178.57254
413123147.47073    -0.00000    178.56988    -72.85922    88.56988    -72.85922    88.56988    -0.00000    178.56988
413821947.73000    -0.00000    178.56722    -72.84307    88.56722    -72.84307    88.56722    -0.00000    178.56722
414521930.01406    -0.00000    178.56455    -72.82692    88.56455    -72.82692    88.56455    -0.00000    178.56455
415223096.32231    -0.00000    178.56187    -72.81077    88.56187    -72.81077    88.56187    -0.00000    178.56187
415925448.65754    -0.00000    178.55919    -72.79461    88.55919    -72.79461    88.55919    -0.00000    178.55919
416628989.02592    -0.00000    178.55650    -72.77844    88.55650    -72.77844    88.55650    -0.00000    178.55650
417333719.43701    -0.00000    178.55380    -72.76227    88.55380    -72.76227    88.55380    -0.00000    178.55380
418039641.90379    -0.00000    178.55110    -72.74609    88.55110    -72.74609    88.55110    -0.00000    178.55110
418746758.44261    -0.00000    178.54839    -72.72991    88.54839    -72.72991    88.54839    -0.00000    178.54839
419455071.07326    -0.00000    178.54568    -72.71372    88.54568    -72.71372    88.54568    -0.00000    178.54568
420164581.81893    -0.00000    178.54296    -72.69753    88.54296    -72.69753    88.54296    -0.00000    178.54296
420875292.70625    -0.00000    178.54024    -72.68133    88.54024    -72.68133    88.54024    -0.00000    178.54024
421587205.76526    -0.00000    178.53751    -72.66513    88.53751    -72.66513    88.53751    -0.00000    178.53751
422300323.02943    -0.00000    178.53477    -72.64892    88.53477    -72.64892    88.53477    -0.00000    178.53477
423014646.53570    -0.00000    178.53203    -72.63270    88.53203    -72.63270    88.53203    -0.00000    178.53203
423730178.32443    -0.00000    178.52928    -72.61648    88.52928    -72.61648    88.52928    -0.00000    178.52928
424446920.43942    -0.00000    178.52653    -72.60026    88.52653    -72.60026    88.52653    -0.00000    178.52653
425164874.92797    -0.00000    178.52376    -72.58402    88.52376    -72.58402    88.52376    -0.00000    178.52376
425884043.84080    -0.00000    178.52100    -72.56779    88.52100    -72.56779    88.52100    -0.00000    178.52100
426604429.23212    -0.00000    178.51822    -72.55154    88.51822    -72.55154    88.51822    -0.00000    178.51822
427326033.15961    -0.00000    178.51544    -72.53530    88.51544    -72.53530    88.51544    -0.00000    178.51544
428048857.68443    -0.00000    178.51266    -72.51904    88.51266    -72.51904    88.51266    -0.00000    178.51266
428772904.87123    -0.00000    178.50987    -72.50278    88.50987    -72.50278    88.50987    -0.00000    178.50987
429498176.78815    -0.00000    178.50707    -72.48652    88.50707    -72.48652    88.50707    -0.00000    178.50707
430224675.50683    -0.00000    178.50426    -72.47025    88.50426    -72.47025    88.50426    -0.00000    178.50426
430952403.10242    -0.00000    178.50145    -72.45397    88.50145    -72.45397    88.50145    -0.00000    178.50145
431681361.65355    -0.00000    178.49864    -72.43769    88.49864    -72.43769    88.49864    -0.00000    178.49864
432411553.24240    -0.00000    178.49581    -72.42140    88.49581    -72.42140    88.49581    -0.00000    178.49581
433142979.95467    -0.00000    178.49298    -72.40511    88.49298    -72.40511    88.49298    -0.00000    178.49298
433875643.87957    -0.00000    178.49015    -72.38881    88.49015    -72.38881    88.49015    -0.00000    178.49015
434609547.10985    -0.00000    178.48731    -72.37251    88.48731    -72.37251    88.48731    -0.00000    178.48731
435344691.74181    -0.00000    178.48446    -72.35620    88.48446    -72.35620    88.48446    -0.00000    178.48446
436081079.87528    -0.00000    178.48160    -72.33988    88.48160    -72.33988    88.48160    -0.00000    178.48160
436818713.61366    -0.00000    178.47874    -72.32356    88.47874    -72.32356    88.47874    -0.00000    178.47874
437557595.06388    -0.00000    178.47587    -72.30723    88.47587    -72.30723    88.47587    -0.00000    178.47587
438297726.33648    -0.00000    178.47300    -72.29090    88.47300    -72.29090    88.47300    -0.00000    178.47300
439039109.54552    -0.00000    178.47012    -72.27456    88.47012    -72.27456    88.47012    -0.00000    178.47012
439781746.80866    -0.00000    178.46723    -72.25821    88.46723    -72.25821    88.46723    -0.00000    178.46723
440525640.24715    -0.00000    178.46434    -72.24186    88.46434    -72.24186    88.46434    -0.00000    178.46434
441270791.98581    -0.00000    178.46144    -72.22550    88.46144    -72.22550    88.46144    -0.00000    178.46144
442017204.15307    -0.00000    178.45853    -72.20914    88.45853    -72.20914    88.45853    -0.00000    178.45853
442764878.88094    -0.00000    178.45562    -72.19277    88.45562    -72.19277    88.45562    -0.00000    178.45562
443513818.30506    -0.00000    178.45270    -72.17639    88.45270    -72.17639    88.45270    -0.00000    178.45270
444264024.56466    -0.00000    178.44977    -72.16001    88.44977    -72.16001    88.44977    -0.00000    178.44977
445015499.80261    -0.00000    178.44684    -72.14362    88.44684    -72.14362    88.44684    -0.00000    178.44684
445768246.16540    -0.00000    178.44390    -72.12723    88.44390    -72.12723    88.44390    -0.00000    178.44390
446522265.80313    -0.00000    178.44095    -72.11083    88.44095    -72.11083    88.44095    -0.00000    178.44095
447277560.86956    -0.00000    178.43800    -72.09442    88.43800    -72.09442    88.43800    -0.00000    178.43800
448034133.52208    -0.00000    178.43504    -72.07801    88.43504    -72.07801    88.43504    -0.00000    178.43504
448791985.92174    -0.00000    178.43207    -72.06159    88.43207    -72.06159    88.43207    -0.00000    178.43207
449551120.23324    -0.00000    178.42910    -72.04517    88.42910    -72.04517    88.42910    -0.00000    178.42910
450311538.62494    -0.00000    178.42612    -72.02874    88.42612    -72.02874    88.42612    -0.00000    178.42612
451073243.26886    -0.00000    178.42313    -72.01230    88.42313    -72.01230    88.42313    -0.00000    178.42313
451836236.34072    -0.00000    178.42013    -71.99586    88.42013    -71.99586    88.42013    -0.00000    178.42013
452600520.01990    -0.00000    178.41713    -71.97941    88.41713    -71.97941    88.41713    -0.00000    178.41713
453366096.48946    -0.00000    178.41412    -71.96295    88.41412    -71.96295    88.41412    -0.00000    178.41412
454132967.93617    -0.00000    178.41111    -71.94649    88.41111    -71.94649    88.41111    -0.00000    178.41111
454901136.55049    -0.00000    178.40809    -71.93002    88.40809    -71.93002    88.40809    -0.00000    178.40809
455670604.52658    -0.00000    178.40506    -71.91354    88.40506    -71.91354    88.40506    -0.00000    178.40506
456441374.06233    -0.00000    178.40202    -71.89706    88.40202    -71.89706    88.40202    -0.00000    178.40202
457213447.35933    -0.00000    178.39898    -71.88057    88.39898    -71.88057    88.39898    -0.00000    178.39898
457986826.62291    -0.00000    178.39593    -71.86408    88.39593    -71.86408    88.39593    -0.00000    178.39593
458761514.06210    -0.00000    178.39287    -71.84758    88.39287    -71.84758    88.39287    -0.00000    178.39287
459537511.88970    -0.00000    178.38981    -71.83107    88.38981    -71.83107    88.38981    -0.00000    178.38981
460314822.32223    -0.00000    178.38674    -71.81455    88.38674    -71.81455    88.38674    -0.00000    178.38674
461093447.57999    -0.00000    178.38366    -71.79803    88.38366    -71.79803    88.38366    -0.00000    178.38366
461873389.88699    -0.00000    178.38058    -71.78151    88.38058    -71.78151    88.38058    -0.00000    178.38058
