! rf-tools.com
! Date: Thu Jan 30 2020 11:02:51 GMT+0000 (格林尼治标准时间)
# Hz S DB R 50.00
!Frequency        S11 dB       S11 Deg       S21 dB      S21 Deg      S12 dB      S12 Deg      S22 dB       S22 Deg      
347119048.27170    0.00000    178.86855    -221.45077    88.86855    -221.45077    88.86855    0.00000    178.86855
347706202.20489    0.00000    178.86650    -221.37217    88.86650    -221.37217    88.86650    0.00000    178.86650
348294349.31245    0.00000    178.86445    -221.29357    88.86445    -221.29357    88.86445    0.00000    178.86445
348883491.27433    -0.00000    178.86239    -221.21494    88.86239    -221.21494    88.86239    -0.00000    178.86239
349473629.77335    -0.00000    178.86033    -221.13629    88.86033    -221.13629    88.86033    -0.00000    178.86033
350064766.49514    -0.00000    178.85826    -221.05763    88.85826    -221.05763    88.85826    -0.00000    178.85826
350656903.12821    0.00000    178.85619    -220.97895    88.85619    -220.97895    88.85619    0.00000    178.85619
351250041.36392    0.00000    178.85412    -220.90025    88.85412    -220.90025    88.85412    0.00000    178.85412
351844182.89648    -0.00000    178.85204    -220.82153    88.85204    -220.82153    88.85204    -0.00000    178.85204
352439329.42297    0.00000    178.84996    -220.74279    88.84996    -220.74279    88.84996    0.00000    178.84996
353035482.64334    0.00000    178.84787    -220.66403    88.84787    -220.66403    88.84787    0.00000    178.84787
353632644.26044    -0.00000    178.84578    -220.58526    88.84578    -220.58526    88.84578    0.00000    178.84578
354230815.97995    -0.00000    178.84368    -220.50646    88.84368    -220.50646    88.84368    -0.00000    178.84368
354829999.51049    0.00000    178.84158    -220.42765    88.84158    -220.42765    88.84158    0.00000    178.84158
355430196.56353    -0.00000    178.83948    -220.34882    88.83948    -220.34882    88.83948    -0.00000    178.83948
356031408.85345    -0.00000    178.83737    -220.26996    88.83737    -220.26996    88.83737    -0.00000    178.83737
356633638.09753    0.00000    178.83525    -220.19109    88.83525    -220.19109    88.83525    0.00000    178.83525
357236886.01596    -0.00000    178.83314    -220.11220    88.83314    -220.11220    88.83314    -0.00000    178.83314
357841154.33182    0.00000    178.83101    -220.03329    88.83101    -220.03329    88.83101    0.00000    178.83101
358446444.77114    -0.00000    178.82889    -219.95436    88.82889    -219.95436    88.82889    -0.00000    178.82889
359052759.06283    0.00000    178.82676    -219.87542    88.82676    -219.87542    88.82676    0.00000    178.82676
359660098.93875    -0.00000    178.82462    -219.79645    88.82462    -219.79645    88.82462    -0.00000    178.82462
360268466.13368    0.00000    178.82248    -219.71746    88.82248    -219.71746    88.82248    0.00000    178.82248
360877862.38533    0.00000    178.82034    -219.63846    88.82034    -219.63846    88.82034    0.00000    178.82034
361488289.43437    -0.00000    178.81819    -219.55943    88.81819    -219.55943    88.81819    -0.00000    178.81819
362099749.02438    -0.00000    178.81604    -219.48038    88.81604    -219.48038    88.81604    -0.00000    178.81604
362712242.90193    0.00000    178.81388    -219.40132    88.81388    -219.40132    88.81388    0.00000    178.81388
363325772.81651    -0.00000    178.81172    -219.32223    88.81172    -219.32223    88.81172    -0.00000    178.81172
363940340.52059    -0.00000    178.80955    -219.24312    88.80955    -219.24312    88.80955    -0.00000    178.80955
364555947.76959    0.00000    178.80738    -219.16400    88.80738    -219.16400    88.80738    0.00000    178.80738
365172596.32192    0.00000    178.80520    -219.08485    88.80520    -219.08485    88.80520    0.00000    178.80520
365790287.93893    -0.00000    178.80302    -219.00569    88.80302    -219.00569    88.80302    -0.00000    178.80302
366409024.38499    0.00000    178.80084    -218.92650    88.80084    -218.92650    88.80084    0.00000    178.80084
367028807.42742    0.00000    178.79865    -218.84729    88.79865    -218.84729    88.79865    0.00000    178.79865
367649638.83655    0.00000    178.79646    -218.76806    88.79646    -218.76806    88.79646    0.00000    178.79646
368271520.38570    -0.00000    178.79426    -218.68882    88.79426    -218.68882    88.79426    -0.00000    178.79426
368894453.85118    0.00000    178.79206    -218.60955    88.79206    -218.60955    88.79206    0.00000    178.79206
369518441.01233    0.00000    178.78985    -218.53026    88.78985    -218.53026    88.78985    0.00000    178.78985
370143483.65147    0.00000    178.78764    -218.45095    88.78764    -218.45095    88.78764    0.00000    178.78764
370769583.55394    -0.00000    178.78542    -218.37162    88.78542    -218.37162    88.78542    -0.00000    178.78542
371396742.50812    0.00000    178.78320    -218.29226    88.78320    -218.29226    88.78320    0.00000    178.78320
372024962.30540    0.00000    178.78097    -218.21289    88.78097    -218.21289    88.78097    0.00000    178.78097
372654244.74020    0.00000    178.77874    -218.13350    88.77874    -218.13350    88.77874    0.00000    178.77874
373284591.60998    -0.00000    178.77651    -218.05408    88.77651    -218.05408    88.77651    -0.00000    178.77651
373916004.71524    0.00000    178.77427    -217.97465    88.77427    -217.97465    88.77427    0.00000    178.77427
374548485.85952    0.00000    178.77202    -217.89519    88.77202    -217.89519    88.77202    0.00000    178.77202
375182036.84941    0.00000    178.76977    -217.81571    88.76977    -217.81571    88.76977    0.00000    178.76977
375816659.49456    0.00000    178.76752    -217.73621    88.76752    -217.73621    88.76752    0.00000    178.76752
376452355.60769    -0.00000    178.76526    -217.65669    88.76526    -217.65669    88.76526    -0.00000    178.76526
377089127.00458    -0.00000    178.76300    -217.57714    88.76300    -217.57714    88.76300    -0.00000    178.76300
377726975.50407    0.00000    178.76073    -217.49758    88.76073    -217.49758    88.76073    0.00000    178.76073
378365902.92808    -0.00000    178.75845    -217.41799    88.75845    -217.41799    88.75845    -0.00000    178.75845
379005911.10163    0.00000    178.75618    -217.33838    88.75618    -217.33838    88.75618    0.00000    178.75618
379647001.85281    -0.00000    178.75389    -217.25875    88.75389    -217.25875    88.75389    -0.00000    178.75389
380289177.01281    -0.00000    178.75161    -217.17910    88.75161    -217.17910    88.75161    -0.00000    178.75161
380932438.41590    0.00000    178.74931    -217.09942    88.74931    -217.09942    88.74931    0.00000    178.74931
381576787.89949    0.00000    178.74702    -217.01973    88.74702    -217.01973    88.74702    0.00000    178.74702
382222227.30405    -0.00000    178.74471    -216.94001    88.74471    -216.94001    88.74471    -0.00000    178.74471
382868758.47320    0.00000    178.74241    -216.86027    88.74241    -216.86027    88.74241    0.00000    178.74241
383516383.25367    0.00000    178.74010    -216.78050    88.74010    -216.78050    88.74010    0.00000    178.74010
384165103.49530    0.00000    178.73778    -216.70072    88.73778    -216.70072    88.73778    0.00000    178.73778
384814921.05108    -0.00000    178.73546    -216.62091    88.73546    -216.62091    88.73546    -0.00000    178.73546
385465837.77711    -0.00000    178.73313    -216.54108    88.73313    -216.54108    88.73313    -0.00000    178.73313
386117855.53266    0.00000    178.73080    -216.46122    88.73080    -216.46122    88.73080    0.00000    178.73080
386770976.18011    -0.00000    178.72846    -216.38134    88.72846    -216.38134    88.72846    -0.00000    178.72846
387425201.58502    0.00000    178.72612    -216.30144    88.72612    -216.30144    88.72612    0.00000    178.72612
388080533.61609    0.00000    178.72377    -216.22152    88.72377    -216.22152    88.72377    0.00000    178.72377
388736974.14519    0.00000    178.72142    -216.14158    88.72142    -216.14158    88.72142    0.00000    178.72142
389394525.04734    -0.00000    178.71907    -216.06161    88.71907    -216.06161    88.71907    -0.00000    178.71907
390053188.20075    -0.00000    178.71670    -215.98161    88.71670    -215.98161    88.71670    -0.00000    178.71670
390712965.48680    0.00000    178.71434    -215.90160    88.71434    -215.90160    88.71434    0.00000    178.71434
391373858.79005    -0.00000    178.71197    -215.82156    88.71197    -215.82156    88.71197    -0.00000    178.71197
392035869.99825    0.00000    178.70959    -215.74150    88.70959    -215.74150    88.70959    0.00000    178.70959
392699001.00235    0.00000    178.70721    -215.66141    88.70721    -215.66141    88.70721    0.00000    178.70721
393363253.69648    -0.00000    178.70482    -215.58130    88.70482    -215.58130    88.70482    -0.00000    178.70482
394028629.97799    0.00000    178.70243    -215.50117    88.70243    -215.50117    88.70243    0.00000    178.70243
394695131.74743    -0.00000    178.70003    -215.42101    88.70003    -215.42101    88.70003    -0.00000    178.70003
395362760.90858    0.00000    178.69763    -215.34083    88.69763    -215.34083    88.69763    0.00000    178.69763
396031519.36842    0.00000    178.69522    -215.26062    88.69522    -215.26062    88.69522    0.00000    178.69522
396701409.03717    0.00000    178.69281    -215.18039    88.69281    -215.18039    88.69281    0.00000    178.69281
397372431.82828    0.00000    178.69039    -215.10014    88.69039    -215.10014    88.69039    0.00000    178.69039
398044589.65843    -0.00000    178.68797    -215.01986    88.68797    -215.01986    88.68797    -0.00000    178.68797
398717884.44754    0.00000    178.68554    -214.93956    88.68554    -214.93956    88.68554    0.00000    178.68554
399392318.11879    0.00000    178.68311    -214.85923    88.68311    -214.85923    88.68311    0.00000    178.68311
400067892.59860    0.00000    178.68067    -214.77888    88.68067    -214.77888    88.68067    0.00000    178.68067
400744609.81666    0.00000    178.67822    -214.69850    88.67822    -214.69850    88.67822    0.00000    178.67822
401422471.70591    0.00000    178.67577    -214.61810    88.67577    -214.61810    88.67577    0.00000    178.67577
402101480.20259    -0.00000    178.67332    -214.53767    88.67332    -214.53767    88.67332    -0.00000    178.67332
402781637.24616    -0.00000    178.67086    -214.45722    88.67086    -214.45722    88.67086    -0.00000    178.67086
403462944.77943    -0.00000    178.66839    -214.37675    88.66839    -214.37675    88.66839    -0.00000    178.66839
404145404.74843    -0.00000    178.66592    -214.29625    88.66592    -214.29625    88.66592    -0.00000    178.66592
404829019.10252    0.00000    178.66345    -214.21572    88.66345    -214.21572    88.66345    0.00000    178.66345
405513789.79436    0.00000    178.66097    -214.13517    88.66097    -214.13517    88.66097    0.00000    178.66097
406199718.77989    -0.00000    178.65848    -214.05459    88.65848    -214.05459    88.65848    -0.00000    178.65848
406886808.01838    0.00000    178.65599    -213.97399    88.65599    -213.97399    88.65599    0.00000    178.65599
407575059.47240    -0.00000    178.65349    -213.89336    88.65349    -213.89336    88.65349    -0.00000    178.65349
408264475.10785    0.00000    178.65099    -213.81271    88.65099    -213.81271    88.65099    0.00000    178.65099
408955056.89393    0.00000    178.64848    -213.73203    88.64848    -213.73203    88.64848    0.00000    178.64848
409646806.80322    -0.00000    178.64596    -213.65132    88.64596    -213.65132    88.64596    -0.00000    178.64596
410339726.81159    0.00000    178.64345    -213.57059    88.64345    -213.57059    88.64345    0.00000    178.64345
411033818.89827    0.00000    178.64092    -213.48983    88.64092    -213.48983    88.64092    0.00000    178.64092
411729085.04584    0.00000    178.63839    -213.40905    88.63839    -213.40905    88.63839    0.00000    178.63839
412425527.24023    -0.00000    178.63585    -213.32824    88.63585    -213.32824    88.63585    -0.00000    178.63585
413123147.47073    -0.00000    178.63331    -213.24740    88.63331    -213.24740    88.63331    -0.00000    178.63331
413821947.73000    0.00000    178.63077    -213.16654    88.63077    -213.16654    88.63077    0.00000    178.63077
414521930.01406    0.00000    178.62821    -213.08565    88.62821    -213.08565    88.62821    0.00000    178.62821
415223096.32231    0.00000    178.62565    -213.00474    88.62565    -213.00474    88.62565    0.00000    178.62565
415925448.65754    0.00000    178.62309    -212.92379    88.62309    -212.92379    88.62309    0.00000    178.62309
416628989.02592    0.00000    178.62052    -212.84282    88.62052    -212.84282    88.62052    0.00000    178.62052
417333719.43701    0.00000    178.61795    -212.76183    88.61795    -212.76183    88.61795    0.00000    178.61795
418039641.90379    -0.00000    178.61536    -212.68080    88.61536    -212.68080    88.61536    -0.00000    178.61536
418746758.44261    0.00000    178.61278    -212.59975    88.61278    -212.59975    88.61278    0.00000    178.61278
419455071.07326    -0.00000    178.61019    -212.51868    88.61019    -212.51868    88.61019    -0.00000    178.61019
420164581.81893    0.00000    178.60759    -212.43757    88.60759    -212.43757    88.60759    0.00000    178.60759
420875292.70625    -0.00000    178.60498    -212.35644    88.60498    -212.35644    88.60498    -0.00000    178.60498
421587205.76526    0.00000    178.60238    -212.27528    88.60238    -212.27528    88.60238    0.00000    178.60238
422300323.02943    0.00000    178.59976    -212.19409    88.59976    -212.19409    88.59976    0.00000    178.59976
423014646.53570    0.00000    178.59714    -212.11287    88.59714    -212.11287    88.59714    0.00000    178.59714
423730178.32443    0.00000    178.59451    -212.03163    88.59451    -212.03163    88.59451    0.00000    178.59451
424446920.43942    -0.00000    178.59188    -211.95036    88.59188    -211.95036    88.59188    -0.00000    178.59188
425164874.92797    -0.00000    178.58924    -211.86906    88.58924    -211.86906    88.58924    -0.00000    178.58924
425884043.84080    -0.00000    178.58660    -211.78773    88.58660    -211.78773    88.58660    -0.00000    178.58660
426604429.23212    -0.00000    178.58395    -211.70637    88.58395    -211.70637    88.58395    -0.00000    178.58395
427326033.15961    -0.00000    178.58129    -211.62499    88.58129    -211.62499    88.58129    -0.00000    178.58129
428048857.68443    0.00000    178.57863    -211.54358    88.57863    -211.54358    88.57863    0.00000    178.57863
428772904.87123    0.00000    178.57596    -211.46213    88.57596    -211.46213    88.57596    0.00000    178.57596
429498176.78815    -0.00000    178.57329    -211.38066    88.57329    -211.38066    88.57329    -0.00000    178.57329
430224675.50683    -0.00000    178.57061    -211.29916    88.57061    -211.29916    88.57061    -0.00000    178.57061
430952403.10242    -0.00000    178.56792    -211.21764    88.56792    -211.21764    88.56792    -0.00000    178.56792
431681361.65355    0.00000    178.56523    -211.13608    88.56523    -211.13608    88.56523    0.00000    178.56523
432411553.24240    0.00000    178.56253    -211.05449    88.56253    -211.05449    88.56253    0.00000    178.56253
433142979.95467    -0.00000    178.55983    -210.97288    88.55983    -210.97288    88.55983    -0.00000    178.55983
433875643.87957    -0.00000    178.55712    -210.89123    88.55712    -210.89123    88.55712    -0.00000    178.55712
434609547.10985    0.00000    178.55440    -210.80956    88.55440    -210.80956    88.55440    0.00000    178.55440
435344691.74181    0.00000    178.55168    -210.72785    88.55168    -210.72785    88.55168    0.00000    178.55168
436081079.87528    -0.00000    178.54895    -210.64612    88.54895    -210.64612    88.54895    -0.00000    178.54895
436818713.61366    0.00000    178.54622    -210.56435    88.54622    -210.56435    88.54622    0.00000    178.54622
437557595.06388    0.00000    178.54347    -210.48256    88.54347    -210.48256    88.54347    0.00000    178.54347
438297726.33648    0.00000    178.54073    -210.40074    88.54073    -210.40074    88.54073    0.00000    178.54073
439039109.54552    0.00000    178.53797    -210.31888    88.53797    -210.31888    88.53797    0.00000    178.53797
439781746.80866    -0.00000    178.53522    -210.23700    88.53522    -210.23700    88.53522    -0.00000    178.53522
440525640.24715    -0.00000    178.53245    -210.15508    88.53245    -210.15508    88.53245    -0.00000    178.53245
441270791.98581    -0.00000    178.52968    -210.07314    88.52968    -210.07314    88.52968    -0.00000    178.52968
442017204.15307    0.00000    178.52690    -209.99116    88.52690    -209.99116    88.52690    0.00000    178.52690
442764878.88094    0.00000    178.52412    -209.90916    88.52412    -209.90916    88.52412    0.00000    178.52412
443513818.30506    -0.00000    178.52133    -209.82712    88.52133    -209.82712    88.52133    -0.00000    178.52133
444264024.56466    -0.00000    178.51853    -209.74505    88.51853    -209.74505    88.51853    -0.00000    178.51853
445015499.80261    0.00000    178.51573    -209.66295    88.51573    -209.66295    88.51573    0.00000    178.51573
445768246.16540    0.00000    178.51292    -209.58082    88.51292    -209.58082    88.51292    0.00000    178.51292
446522265.80313    0.00000    178.51010    -209.49866    88.51010    -209.49866    88.51010    0.00000    178.51010
447277560.86956    0.00000    178.50728    -209.41646    88.50728    -209.41646    88.50728    0.00000    178.50728
448034133.52208    0.00000    178.50445    -209.33424    88.50445    -209.33424    88.50445    0.00000    178.50445
448791985.92174    -0.00000    178.50161    -209.25198    88.50161    -209.25198    88.50161    -0.00000    178.50161
449551120.23324    -0.00000    178.49877    -209.16969    88.49877    -209.16969    88.49877    -0.00000    178.49877
450311538.62494    0.00000    178.49592    -209.08737    88.49592    -209.08737    88.49592    0.00000    178.49592
451073243.26886    -0.00000    178.49307    -209.00502    88.49307    -209.00502    88.49307    -0.00000    178.49307
451836236.34072    0.00000    178.49021    -208.92264    88.49021    -208.92264    88.49021    0.00000    178.49021
452600520.01990    -0.00000    178.48734    -208.84022    88.48734    -208.84022    88.48734    -0.00000    178.48734
453366096.48946    0.00000    178.48446    -208.75777    88.48446    -208.75777    88.48446    0.00000    178.48446
454132967.93617    0.00000    178.48158    -208.67529    88.48158    -208.67529    88.48158    0.00000    178.48158
454901136.55049    -0.00000    178.47870    -208.59277    88.47870    -208.59277    88.47870    -0.00000    178.47870
455670604.52658    0.00000    178.47580    -208.51023    88.47580    -208.51023    88.47580    0.00000    178.47580
456441374.06233    0.00000    178.47290    -208.42765    88.47290    -208.42765    88.47290    0.00000    178.47290
457213447.35933    0.00000    178.46999    -208.34503    88.46999    -208.34503    88.46999    0.00000    178.46999
457986826.62291    0.00000    178.46708    -208.26239    88.46708    -208.26239    88.46708    0.00000    178.46708
458761514.06210    0.00000    178.46416    -208.17971    88.46416    -208.17971    88.46416    0.00000    178.46416
459537511.88970    0.00000    178.46123    -208.09699    88.46123    -208.09699    88.46123    0.00000    178.46123
460314822.32223    0.00000    178.45829    -208.01425    88.45829    -208.01425    88.45829    0.00000    178.45829
461093447.57999    -0.00000    178.45535    -207.93147    88.45535    -207.93147    88.45535    -0.00000    178.45535
