! rf-tools.com
! Date: Thu Jan 30 2020 11:40:55 GMT+0000 (格林尼治标准时间)
# Hz S DB R 50.00
!Frequency        S11 dB       S11 Deg       S21 dB      S21 Deg      S12 dB      S12 Deg      S22 dB       S22 Deg      
600000.00000    -0.00000    179.82268    -87.29548    89.82268    -87.29548    89.82268    -0.00000    179.82268
604438.08460    -0.00000    179.82137    -87.23148    89.82137    -87.23148    89.82137    -0.00000    179.82137
608908.99685    -0.00000    179.82005    -87.16747    89.82005    -87.16747    89.82005    -0.00000    179.82005
613412.97959    -0.00000    179.81871    -87.10346    89.81871    -87.10346    89.81871    -0.00000    179.81871
617950.27742    -0.00000    179.81737    -87.03945    89.81737    -87.03945    89.81737    -0.00000    179.81737
622521.13676    -0.00000    179.81602    -86.97545    89.81602    -86.97545    89.81602    -0.00000    179.81602
627125.80588    -0.00000    179.81466    -86.91144    89.81466    -86.91144    89.81466    -0.00000    179.81466
631764.53485    -0.00000    179.81329    -86.84743    89.81329    -86.84743    89.81329    -0.00000    179.81329
636437.57560    -0.00000    179.81191    -86.78342    89.81191    -86.78342    89.81191    -0.00000    179.81191
641145.18194    -0.00000    179.81052    -86.71942    89.81052    -86.71942    89.81052    -0.00000    179.81052
645887.60953    -0.00000    179.80912    -86.65541    89.80912    -86.65541    89.80912    -0.00000    179.80912
650665.11595    -0.00000    179.80770    -86.59140    89.80770    -86.59140    89.80770    -0.00000    179.80770
655477.96067    -0.00000    179.80628    -86.52740    89.80628    -86.52740    89.80628    -0.00000    179.80628
660326.40507    -0.00000    179.80485    -86.46339    89.80485    -86.46339    89.80485    -0.00000    179.80485
665210.71248    -0.00000    179.80341    -86.39938    89.80341    -86.39938    89.80341    -0.00000    179.80341
670131.14818    -0.00000    179.80195    -86.33537    89.80195    -86.33537    89.80195    -0.00000    179.80195
675087.97939    -0.00000    179.80049    -86.27137    89.80049    -86.27137    89.80049    -0.00000    179.80049
680081.47533    -0.00000    179.79901    -86.20736    89.79901    -86.20736    89.79901    -0.00000    179.79901
685111.90720    -0.00000    179.79752    -86.14335    89.79752    -86.14335    89.79752    -0.00000    179.79752
690179.54821    -0.00000    179.79603    -86.07935    89.79603    -86.07935    89.79603    -0.00000    179.79603
695284.67358    -0.00000    179.79452    -86.01534    89.79452    -86.01534    89.79452    -0.00000    179.79452
700427.56058    -0.00000    179.79300    -85.95134    89.79300    -85.95134    89.79300    -0.00000    179.79300
705608.48853    -0.00000    179.79147    -85.88733    89.79147    -85.88733    89.79147    -0.00000    179.79147
710827.73880    -0.00000    179.78992    -85.82332    89.78992    -85.82332    89.78992    -0.00000    179.78992
716085.59487    -0.00000    179.78837    -85.75932    89.78837    -85.75932    89.78837    -0.00000    179.78837
721382.34228    -0.00000    179.78681    -85.69531    89.78681    -85.69531    89.78681    -0.00000    179.78681
726718.26872    -0.00000    179.78523    -85.63130    89.78523    -85.63130    89.78523    -0.00000    179.78523
732093.66398    -0.00000    179.78364    -85.56730    89.78364    -85.56730    89.78364    -0.00000    179.78364
737508.82000    -0.00000    179.78204    -85.50329    89.78204    -85.50329    89.78204    -0.00000    179.78204
742964.03090    -0.00000    179.78043    -85.43929    89.78043    -85.43929    89.78043    -0.00000    179.78043
748459.59293    -0.00000    179.77880    -85.37528    89.77880    -85.37528    89.77880    -0.00000    179.77880
753995.80459    -0.00000    179.77717    -85.31127    89.77717    -85.31127    89.77717    -0.00000    179.77717
759572.96653    -0.00000    179.77552    -85.24727    89.77552    -85.24727    89.77552    -0.00000    179.77552
765191.38167    -0.00000    179.77386    -85.18326    89.77386    -85.18326    89.77386    -0.00000    179.77386
770851.35515    -0.00000    179.77219    -85.11926    89.77219    -85.11926    89.77219    -0.00000    179.77219
776553.19436    -0.00000    179.77050    -85.05525    89.77050    -85.05525    89.77050    -0.00000    179.77050
782297.20898    -0.00000    179.76880    -84.99125    89.76880    -84.99125    89.76880    -0.00000    179.76880
788083.71097    -0.00000    179.76709    -84.92724    89.76709    -84.92724    89.76709    -0.00000    179.76709
793913.01460    -0.00000    179.76537    -84.86324    89.76537    -84.86324    89.76537    -0.00000    179.76537
799785.43647    -0.00000    179.76363    -84.79923    89.76363    -84.79923    89.76363    -0.00000    179.76363
805701.29552    -0.00000    179.76189    -84.73523    89.76189    -84.73523    89.76189    -0.00000    179.76189
811660.91303    -0.00000    179.76012    -84.67122    89.76012    -84.67122    89.76012    -0.00000    179.76012
817664.61270    -0.00000    179.75835    -84.60722    89.75835    -84.60722    89.75835    -0.00000    179.75835
823712.72057    -0.00000    179.75656    -84.54321    89.75656    -84.54321    89.75656    -0.00000    179.75656
829805.56513    -0.00000    179.75476    -84.47921    89.75476    -84.47921    89.75476    -0.00000    179.75476
835943.47730    -0.00000    179.75295    -84.41521    89.75295    -84.41521    89.75295    -0.00000    179.75295
842126.79042    -0.00000    179.75112    -84.35120    89.75112    -84.35120    89.75112    -0.00000    179.75112
848355.84031    -0.00000    179.74928    -84.28720    89.74928    -84.28720    89.74928    -0.00000    179.74928
854630.96529    -0.00000    179.74743    -84.22319    89.74743    -84.22319    89.74743    -0.00000    179.74743
860952.50617    -0.00000    179.74556    -84.15919    89.74556    -84.15919    89.74556    -0.00000    179.74556
867320.80626    -0.00000    179.74367    -84.09518    89.74367    -84.09518    89.74367    -0.00000    179.74367
873736.21145    -0.00000    179.74178    -84.03118    89.74178    -84.03118    89.74178    -0.00000    179.74178
880199.07015    -0.00000    179.73987    -83.96718    89.73987    -83.96718    89.73987    -0.00000    179.73987
886709.73338    -0.00000    179.73794    -83.90317    89.73794    -83.90317    89.73794    -0.00000    179.73794
893268.55473    -0.00000    179.73601    -83.83917    89.73601    -83.83917    89.73601    -0.00000    179.73601
899875.89042    -0.00000    179.73405    -83.77517    89.73405    -83.77517    89.73405    -0.00000    179.73405
906532.09931    -0.00000    179.73209    -83.71116    89.73209    -83.71116    89.73209    -0.00000    179.73209
913237.54289    -0.00000    179.73010    -83.64716    89.73010    -83.64716    89.73010    -0.00000    179.73010
919992.58534    -0.00000    179.72811    -83.58316    89.72811    -83.58316    89.72811    -0.00000    179.72811
926797.59355    -0.00000    179.72610    -83.51916    89.72610    -83.51916    89.72610    -0.00000    179.72610
933652.93709    -0.00000    179.72407    -83.45515    89.72407    -83.45515    89.72407    -0.00000    179.72407
940558.98829    -0.00000    179.72203    -83.39115    89.72203    -83.39115    89.72203    -0.00000    179.72203
947516.12222    -0.00000    179.71997    -83.32715    89.71997    -83.32715    89.71997    -0.00000    179.71997
954524.71674    -0.00000    179.71790    -83.26315    89.71790    -83.26315    89.71790    -0.00000    179.71790
961585.15248    -0.00000    179.71582    -83.19914    89.71582    -83.19914    89.71582    -0.00000    179.71582
968697.81290    -0.00000    179.71371    -83.13514    89.71371    -83.13514    89.71371    -0.00000    179.71371
975863.08431    -0.00000    179.71160    -83.07114    89.71160    -83.07114    89.71160    -0.00000    179.71160
983081.35585    -0.00000    179.70946    -83.00714    89.70946    -83.00714    89.70946    -0.00000    179.70946
990353.01955    -0.00000    179.70731    -82.94314    89.70731    -82.94314    89.70731    -0.00000    179.70731
997678.47036    -0.00000    179.70515    -82.87914    89.70515    -82.87914    89.70515    -0.00000    179.70515
1005058.10611    -0.00000    179.70297    -82.81513    89.70297    -82.81513    89.70297    -0.00000    179.70297
1012492.32762    -0.00000    179.70077    -82.75113    89.70077    -82.75113    89.70077    -0.00000    179.70077
1019981.53862    -0.00000    179.69856    -82.68713    89.69856    -82.68713    89.69856    -0.00000    179.69856
1027526.14589    -0.00000    179.69633    -82.62313    89.69633    -82.62313    89.69633    -0.00000    179.69633
1035126.55916    -0.00000    179.69408    -82.55913    89.69408    -82.55913    89.69408    -0.00000    179.69408
1042783.19122    -0.00000    179.69182    -82.49513    89.69182    -82.49513    89.69182    -0.00000    179.69182
1050496.45792    -0.00000    179.68954    -82.43113    89.68954    -82.43113    89.68954    -0.00000    179.68954
1058266.77817    -0.00000    179.68724    -82.36713    89.68724    -82.36713    89.68724    -0.00000    179.68724
1066094.57399    -0.00000    179.68493    -82.30313    89.68493    -82.30313    89.68493    -0.00000    179.68493
1073980.27050    -0.00000    179.68260    -82.23913    89.68260    -82.23913    89.68260    -0.00000    179.68260
1081924.29600    -0.00000    179.68025    -82.17513    89.68025    -82.17513    89.68025    -0.00000    179.68025
1089927.08192    -0.00000    179.67789    -82.11113    89.67789    -82.11113    89.67789    -0.00000    179.67789
1097989.06291    -0.00000    179.67550    -82.04713    89.67550    -82.04713    89.67550    -0.00000    179.67550
1106110.67683    -0.00000    179.67310    -81.98313    89.67310    -81.98313    89.67310    -0.00000    179.67310
1114292.36476    -0.00000    179.67068    -81.91913    89.67068    -81.91913    89.67068    -0.00000    179.67068
1122534.57106    -0.00000    179.66825    -81.85514    89.66825    -81.85514    89.66825    -0.00000    179.66825
1130837.74338    -0.00000    179.66580    -81.79114    89.66580    -81.79114    89.66580    -0.00000    179.66580
1139202.33267    -0.00000    179.66332    -81.72714    89.66332    -81.72714    89.66332    -0.00000    179.66332
1147628.79321    -0.00000    179.66083    -81.66314    89.66083    -81.66314    89.66083    -0.00000    179.66083
1156117.58266    -0.00000    179.65832    -81.59914    89.65832    -81.59914    89.65832    -0.00000    179.65832
1164669.16206    -0.00000    179.65580    -81.53515    89.65580    -81.53515    89.65580    -0.00000    179.65580
1173283.99584    -0.00000    179.65325    -81.47115    89.65325    -81.47115    89.65325    -0.00000    179.65325
1181962.55189    -0.00000    179.65069    -81.40715    89.65069    -81.40715    89.65069    -0.00000    179.65069
1190705.30156    -0.00000    179.64810    -81.34315    89.64810    -81.34315    89.64810    -0.00000    179.64810
1199512.71965    -0.00000    179.64550    -81.27916    89.64550    -81.27916    89.64550    -0.00000    179.64550
1208385.28453    -0.00000    179.64288    -81.21516    89.64288    -81.21516    89.64288    -0.00000    179.64288
1217323.47806    -0.00000    179.64024    -81.15116    89.64024    -81.15116    89.64024    -0.00000    179.64024
1226327.78570    -0.00000    179.63757    -81.08717    89.63757    -81.08717    89.63757    -0.00000    179.63757
1235398.69646    -0.00000    179.63489    -81.02317    89.63489    -81.02317    89.63489    -0.00000    179.63489
1244536.70301    -0.00000    179.63219    -80.95918    89.63219    -80.95918    89.63219    -0.00000    179.63219
1253742.30163    -0.00000    179.62947    -80.89518    89.62947    -80.89518    89.62947    -0.00000    179.62947
1263015.99229    -0.00000    179.62673    -80.83118    89.62673    -80.83118    89.62673    -0.00000    179.62673
1272358.27866    -0.00000    179.62397    -80.76719    89.62397    -80.76719    89.62397    -0.00000    179.62397
1281769.66813    -0.00000    179.62119    -80.70319    89.62119    -80.70319    89.62119    -0.00000    179.62119
1291250.67183    -0.00000    179.61839    -80.63920    89.61839    -80.63920    89.61839    -0.00000    179.61839
1300801.80470    -0.00000    179.61556    -80.57521    89.61556    -80.57521    89.61556    -0.00000    179.61556
1310423.58546    -0.00000    179.61272    -80.51121    89.61272    -80.51121    89.61272    -0.00000    179.61272
1320116.53668    -0.00000    179.60986    -80.44722    89.60986    -80.44722    89.60986    -0.00000    179.60986
1329881.18479    -0.00000    179.60697    -80.38322    89.60697    -80.38322    89.60697    -0.00000    179.60697
1339718.06013    -0.00000    179.60406    -80.31923    89.60406    -80.31923    89.60406    -0.00000    179.60406
1349627.69694    -0.00000    179.60113    -80.25524    89.60113    -80.25524    89.60113    -0.00000    179.60113
1359610.63344    -0.00000    179.59818    -80.19125    89.59818    -80.19125    89.59818    -0.00000    179.59818
1369667.41179    -0.00000    179.59521    -80.12725    89.59521    -80.12725    89.59521    -0.00000    179.59521
1379798.57820    -0.00000    179.59222    -80.06326    89.59222    -80.06326    89.59222    -0.00000    179.59222
1390004.68289    -0.00000    179.58920    -79.99927    89.58920    -79.99927    89.58920    -0.00000    179.58920
1400286.28018    -0.00000    179.58616    -79.93528    89.58616    -79.93528    89.58616    -0.00000    179.58616
1410643.92847    -0.00000    179.58310    -79.87129    89.58310    -79.87129    89.58310    -0.00000    179.58310
1421078.19029    -0.00000    179.58002    -79.80730    89.58002    -79.80730    89.58002    -0.00000    179.58002
1431589.63234    -0.00000    179.57691    -79.74330    89.57691    -79.74330    89.57691    -0.00000    179.57691
1442178.82550    -0.00000    179.57378    -79.67931    89.57378    -79.67931    89.57378    -0.00000    179.57378
1452846.34489    -0.00000    179.57063    -79.61532    89.57063    -79.61532    89.57063    -0.00000    179.57063
1463592.76987    -0.00000    179.56745    -79.55133    89.56745    -79.55133    89.56745    -0.00000    179.56745
1474418.68409    -0.00000    179.56425    -79.48734    89.56425    -79.48734    89.56425    -0.00000    179.56425
1485324.67551    -0.00000    179.56103    -79.42336    89.56103    -79.42336    89.56103    -0.00000    179.56103
1496311.33645    -0.00000    179.55778    -79.35937    89.55778    -79.35937    89.55778    -0.00000    179.55778
1507379.26361    -0.00000    179.55451    -79.29538    89.55451    -79.29538    89.55451    -0.00000    179.55451
1518529.05810    -0.00000    179.55122    -79.23139    89.55122    -79.23139    89.55122    -0.00000    179.55122
1529761.32547    -0.00000    179.54790    -79.16740    89.54790    -79.16740    89.54790    -0.00000    179.54790
1541076.67577    -0.00000    179.54455    -79.10341    89.54455    -79.10341    89.54455    -0.00000    179.54455
1552475.72354    -0.00000    179.54118    -79.03943    89.54118    -79.03943    89.54118    -0.00000    179.54118
1563959.08787    -0.00000    179.53779    -78.97544    89.53779    -78.97544    89.53779    -0.00000    179.53779
1575527.39243    -0.00000    179.53437    -78.91145    89.53437    -78.91145    89.53437    -0.00000    179.53437
1587181.26552    -0.00000    179.53093    -78.84747    89.53093    -78.84747    89.53093    -0.00000    179.53093
1598921.34007    -0.00000    179.52746    -78.78348    89.52746    -78.78348    89.52746    -0.00000    179.52746
1610748.25369    -0.00000    179.52396    -78.71950    89.52396    -78.71950    89.52396    -0.00000    179.52396
1622662.64872    -0.00000    179.52044    -78.65551    89.52044    -78.65551    89.52044    -0.00000    179.52044
1634665.17223    -0.00000    179.51689    -78.59153    89.51689    -78.59153    89.51689    -0.00000    179.51689
1646756.47611    -0.00000    179.51332    -78.52754    89.51332    -78.52754    89.51332    -0.00000    179.51332
1658937.21703    -0.00000    179.50972    -78.46356    89.50972    -78.46356    89.50972    -0.00000    179.50972
1671208.05655    -0.00000    179.50609    -78.39958    89.50609    -78.39958    89.50609    -0.00000    179.50609
1683569.66111    -0.00000    179.50244    -78.33560    89.50244    -78.33560    89.50244    -0.00000    179.50244
1696022.70208    -0.00000    179.49876    -78.27161    89.49876    -78.27161    89.49876    -0.00000    179.49876
1708567.85580    -0.00000    179.49505    -78.20763    89.49505    -78.20763    89.49505    -0.00000    179.49505
1721205.80361    -0.00000    179.49132    -78.14365    89.49132    -78.14365    89.49132    -0.00000    179.49132
1733937.23189    -0.00000    179.48755    -78.07967    89.48755    -78.07967    89.48755    -0.00000    179.48755
1746762.83209    -0.00000    179.48376    -78.01569    89.48376    -78.01569    89.48376    -0.00000    179.48376
1759683.30080    -0.00000    179.47994    -77.95171    89.47994    -77.95171    89.47994    -0.00000    179.47994
1772699.33972    -0.00000    179.47610    -77.88773    89.47610    -77.88773    89.47610    -0.00000    179.47610
1785811.65578    -0.00000    179.47222    -77.82375    89.47222    -77.82375    89.47222    -0.00000    179.47222
1799020.96112    -0.00000    179.46832    -77.75977    89.46832    -77.75977    89.46832    -0.00000    179.46832
1812327.97316    -0.00000    179.46438    -77.69579    89.46438    -77.69579    89.46438    -0.00000    179.46438
1825733.41460    -0.00000    179.46042    -77.63181    89.46042    -77.63181    89.46042    -0.00000    179.46042
1839238.01351    -0.00000    179.45643    -77.56784    89.45643    -77.56784    89.45643    -0.00000    179.45643
1852842.50334    -0.00000    179.45241    -77.50386    89.45241    -77.50386    89.45241    -0.00000    179.45241
1866547.62297    -0.00000    179.44836    -77.43988    89.44836    -77.43988    89.44836    -0.00000    179.44836
1880354.11673    -0.00000    179.44428    -77.37591    89.44428    -77.37591    89.44428    -0.00000    179.44428
1894262.73447    -0.00000    179.44017    -77.31193    89.44017    -77.31193    89.44017    -0.00000    179.44017
1908274.23158    -0.00000    179.43603    -77.24796    89.43603    -77.24796    89.43603    -0.00000    179.43603
1922389.36904    -0.00000    179.43186    -77.18398    89.43186    -77.18398    89.43186    -0.00000    179.43186
1936608.91346    -0.00000    179.42765    -77.12001    89.42765    -77.12001    89.42765    -0.00000    179.42765
1950933.63711    -0.00000    179.42342    -77.05604    89.42342    -77.05604    89.42342    -0.00000    179.42342
1965364.31799    -0.00000    179.41915    -76.99207    89.41915    -76.99207    89.41915    -0.00000    179.41915
1979901.73984    -0.00000    179.41486    -76.92809    89.41486    -76.92809    89.41486    -0.00000    179.41486
1994546.69220    -0.00000    179.41053    -76.86412    89.41053    -76.86412    89.41053    -0.00000    179.41053
2009299.97046    -0.00000    179.40617    -76.80015    89.40617    -76.80015    89.40617    -0.00000    179.40617
2024162.37588    -0.00000    179.40178    -76.73618    89.40178    -76.73618    89.40178    -0.00000    179.40178
2039134.71565    -0.00000    179.39735    -76.67221    89.39735    -76.67221    89.39735    -0.00000    179.39735
2054217.80295    -0.00000    179.39289    -76.60824    89.39289    -76.60824    89.39289    -0.00000    179.39289
2069412.45693    -0.00000    179.38840    -76.54428    89.38840    -76.54428    89.38840    -0.00000    179.38840
2084719.50285    -0.00000    179.38388    -76.48031    89.38388    -76.48031    89.38388    -0.00000    179.38388
2100139.77205    -0.00000    179.37932    -76.41634    89.37932    -76.41634    89.37932    -0.00000    179.37932
2115674.10201    -0.00000    179.37473    -76.35237    89.37473    -76.35237    89.37473    -0.00000    179.37473
2131323.33642    -0.00000    179.37011    -76.28841    89.37011    -76.28841    89.37011    -0.00000    179.37011
2147088.32521    -0.00000    179.36545    -76.22444    89.36545    -76.22444    89.36545    -0.00000    179.36545
