! rf-tools.com
! Date: Thu Jan 30 2020 11:07:57 GMT+0000 (格林尼治标准时间)
# Hz S DB R 50.00
!Frequency        S11 dB       S11 Deg       S21 dB      S21 Deg      S12 dB      S12 Deg      S22 dB       S22 Deg      
347119048.27170    0.00000    179.08635    -177.16061    -0.91365    -177.16061    -0.91365    0.00000    -0.91365
347706202.20489    0.00000    179.08470    -177.09774    -0.91530    -177.09774    -0.91530    0.00000    -0.91530
348294349.31245    -0.00000    179.08304    -177.03485    -0.91696    -177.03485    -0.91696    0.00000    -0.91696
348883491.27433    0.00000    179.08138    -176.97195    -0.91862    -176.97195    -0.91862    -0.00000    -0.91862
349473629.77335    0.00000    179.07972    -176.90903    -0.92028    -176.90903    -0.92028    -0.00000    -0.92028
350064766.49514    -0.00000    179.07805    -176.84610    -0.92195    -176.84610    -0.92195    0.00000    -0.92195
350656903.12821    0.00000    179.07637    -176.78316    -0.92363    -176.78316    -0.92363    0.00000    -0.92363
351250041.36392    0.00000    179.07470    -176.72020    -0.92530    -176.72020    -0.92530    -0.00000    -0.92530
351844182.89648    0.00000    179.07302    -176.65722    -0.92698    -176.65722    -0.92698    -0.00000    -0.92698
352439329.42297    -0.00000    179.07134    -176.59423    -0.92866    -176.59423    -0.92866    -0.00000    -0.92866
353035482.64334    -0.00000    179.06965    -176.53123    -0.93035    -176.53123    -0.93035    0.00000    -0.93035
353632644.26044    0.00000    179.06796    -176.46820    -0.93204    -176.46820    -0.93204    0.00000    -0.93204
354230815.97995    0.00000    179.06627    -176.40517    -0.93373    -176.40517    -0.93373    0.00000    -0.93373
354829999.51049    0.00000    179.06458    -176.34212    -0.93542    -176.34212    -0.93542    -0.00000    -0.93542
355430196.56353    0.00000    179.06288    -176.27905    -0.93712    -176.27905    -0.93712    0.00000    -0.93712
356031408.85345    -0.00000    179.06117    -176.21597    -0.93883    -176.21597    -0.93883    0.00000    -0.93883
356633638.09753    -0.00000    179.05947    -176.15287    -0.94053    -176.15287    -0.94053    0.00000    -0.94053
357236886.01596    -0.00000    179.05776    -176.08976    -0.94224    -176.08976    -0.94224    -0.00000    -0.94224
357841154.33182    0.00000    179.05604    -176.02663    -0.94396    -176.02663    -0.94396    0.00000    -0.94396
358446444.77114    -0.00000    179.05433    -175.96349    -0.94567    -175.96349    -0.94567    -0.00000    -0.94567
359052759.06283    -0.00000    179.05260    -175.90033    -0.94740    -175.90033    -0.94740    0.00000    -0.94740
359660098.93875    0.00000    179.05088    -175.83716    -0.94912    -175.83716    -0.94912    -0.00000    -0.94912
360268466.13368    0.00000    179.04915    -175.77397    -0.95085    -175.77397    -0.95085    -0.00000    -0.95085
360877862.38533    -0.00000    179.04742    -175.71076    -0.95258    -175.71076    -0.95258    0.00000    -0.95258
361488289.43437    -0.00000    179.04569    -175.64754    -0.95431    -175.64754    -0.95431    -0.00000    -0.95431
362099749.02438    0.00000    179.04395    -175.58431    -0.95605    -175.58431    -0.95605    -0.00000    -0.95605
362712242.90193    0.00000    179.04221    -175.52105    -0.95779    -175.52105    -0.95779    0.00000    -0.95779
363325772.81651    0.00000    179.04046    -175.45778    -0.95954    -175.45778    -0.95954    -0.00000    -0.95954
363940340.52059    -0.00000    179.03871    -175.39450    -0.96129    -175.39450    -0.96129    0.00000    -0.96129
364555947.76959    0.00000    179.03696    -175.33120    -0.96304    -175.33120    -0.96304    0.00000    -0.96304
365172596.32192    0.00000    179.03520    -175.26788    -0.96480    -175.26788    -0.96480    0.00000    -0.96480
365790287.93893    -0.00000    179.03344    -175.20455    -0.96656    -175.20455    -0.96656    -0.00000    -0.96656
366409024.38499    0.00000    179.03168    -175.14120    -0.96832    -175.14120    -0.96832    -0.00000    -0.96832
367028807.42742    -0.00000    179.02991    -175.07783    -0.97009    -175.07783    -0.97009    -0.00000    -0.97009
367649638.83655    0.00000    179.02814    -175.01445    -0.97186    -175.01445    -0.97186    0.00000    -0.97186
368271520.38570    -0.00000    179.02636    -174.95105    -0.97364    -174.95105    -0.97364    -0.00000    -0.97364
368894453.85118    0.00000    179.02458    -174.88764    -0.97542    -174.88764    -0.97542    0.00000    -0.97542
369518441.01233    -0.00000    179.02280    -174.82421    -0.97720    -174.82421    -0.97720    0.00000    -0.97720
370143483.65147    0.00000    179.02101    -174.76076    -0.97899    -174.76076    -0.97899    -0.00000    -0.97899
370769583.55394    -0.00000    179.01922    -174.69729    -0.98078    -174.69729    -0.98078    0.00000    -0.98078
371396742.50812    0.00000    179.01743    -174.63381    -0.98257    -174.63381    -0.98257    0.00000    -0.98257
372024962.30540    -0.00000    179.01563    -174.57031    -0.98437    -174.57031    -0.98437    -0.00000    -0.98437
372654244.74020    -0.00000    179.01383    -174.50680    -0.98617    -174.50680    -0.98617    0.00000    -0.98617
373284591.60998    0.00000    179.01203    -174.44327    -0.98797    -174.44327    -0.98797    0.00000    -0.98797
373916004.71524    -0.00000    179.01022    -174.37972    -0.98978    -174.37972    -0.98978    -0.00000    -0.98978
374548485.85952    0.00000    179.00841    -174.31615    -0.99159    -174.31615    -0.99159    0.00000    -0.99159
375182036.84941    0.00000    179.00659    -174.25257    -0.99341    -174.25257    -0.99341    -0.00000    -0.99341
375816659.49456    0.00000    179.00477    -174.18897    -0.99523    -174.18897    -0.99523    -0.00000    -0.99523
376452355.60769    0.00000    179.00295    -174.12535    -0.99705    -174.12535    -0.99705    -0.00000    -0.99705
377089127.00458    0.00000    179.00112    -174.06171    -0.99888    -174.06171    -0.99888    -0.00000    -0.99888
377726975.50407    -0.00000    178.99929    -173.99806    -1.00071    -173.99806    -1.00071    -0.00000    -1.00071
378365902.92808    -0.00000    178.99745    -173.93439    -1.00255    -173.93439    -1.00255    0.00000    -1.00255
379005911.10163    0.00000    178.99561    -173.87071    -1.00439    -173.87071    -1.00439    -0.00000    -1.00439
379647001.85281    -0.00000    178.99377    -173.80700    -1.00623    -173.80700    -1.00623    0.00000    -1.00623
380289177.01281    0.00000    178.99192    -173.74328    -1.00808    -173.74328    -1.00808    -0.00000    -1.00808
380932438.41590    -0.00000    178.99007    -173.67954    -1.00993    -173.67954    -1.00993    0.00000    -1.00993
381576787.89949    0.00000    178.98821    -173.61578    -1.01179    -173.61578    -1.01179    0.00000    -1.01179
382222227.30405    -0.00000    178.98636    -173.55201    -1.01364    -173.55201    -1.01364    0.00000    -1.01364
382868758.47320    0.00000    178.98449    -173.48821    -1.01551    -173.48821    -1.01551    -0.00000    -1.01551
383516383.25367    0.00000    178.98263    -173.42440    -1.01737    -173.42440    -1.01737    0.00000    -1.01737
384165103.49530    0.00000    178.98076    -173.36057    -1.01924    -173.36057    -1.01924    0.00000    -1.01924
384814921.05108    0.00000    178.97888    -173.29673    -1.02112    -173.29673    -1.02112    0.00000    -1.02112
385465837.77711    0.00000    178.97700    -173.23286    -1.02300    -173.23286    -1.02300    -0.00000    -1.02300
386117855.53266    0.00000    178.97512    -173.16898    -1.02488    -173.16898    -1.02488    0.00000    -1.02488
386770976.18011    0.00000    178.97323    -173.10508    -1.02677    -173.10508    -1.02677    -0.00000    -1.02677
387425201.58502    0.00000    178.97134    -173.04116    -1.02866    -173.04116    -1.02866    0.00000    -1.02866
388080533.61609    -0.00000    178.96945    -172.97722    -1.03055    -172.97722    -1.03055    0.00000    -1.03055
388736974.14519    0.00000    178.96755    -172.91326    -1.03245    -172.91326    -1.03245    0.00000    -1.03245
389394525.04734    0.00000    178.96564    -172.84928    -1.03436    -172.84928    -1.03436    -0.00000    -1.03436
390053188.20075    0.00000    178.96374    -172.78529    -1.03626    -172.78529    -1.03626    0.00000    -1.03626
390712965.48680    0.00000    178.96183    -172.72128    -1.03817    -172.72128    -1.03817    0.00000    -1.03817
391373858.79005    0.00000    178.95991    -172.65725    -1.04009    -172.65725    -1.04009    -0.00000    -1.04009
392035869.99825    -0.00000    178.95799    -172.59320    -1.04201    -172.59320    -1.04201    -0.00000    -1.04201
392699001.00235    -0.00000    178.95607    -172.52913    -1.04393    -172.52913    -1.04393    0.00000    -1.04393
393363253.69648    -0.00000    178.95414    -172.46504    -1.04586    -172.46504    -1.04586    -0.00000    -1.04586
394028629.97799    0.00000    178.95221    -172.40093    -1.04779    -172.40093    -1.04779    -0.00000    -1.04779
394695131.74743    0.00000    178.95027    -172.33681    -1.04973    -172.33681    -1.04973    0.00000    -1.04973
395362760.90858    0.00000    178.94833    -172.27266    -1.05167    -172.27266    -1.05167    -0.00000    -1.05167
396031519.36842    0.00000    178.94639    -172.20850    -1.05361    -172.20850    -1.05361    -0.00000    -1.05361
396701409.03717    0.00000    178.94444    -172.14431    -1.05556    -172.14431    -1.05556    0.00000    -1.05556
397372431.82828    0.00000    178.94249    -172.08011    -1.05751    -172.08011    -1.05751    0.00000    -1.05751
398044589.65843    -0.00000    178.94053    -172.01589    -1.05947    -172.01589    -1.05947    0.00000    -1.05947
398717884.44754    -0.00000    178.93857    -171.95164    -1.06143    -171.95164    -1.06143    -0.00000    -1.06143
399392318.11879    -0.00000    178.93661    -171.88738    -1.06339    -171.88738    -1.06339    0.00000    -1.06339
400067892.59860    -0.00000    178.93464    -171.82310    -1.06536    -171.82310    -1.06536    -0.00000    -1.06536
400744609.81666    0.00000    178.93266    -171.75880    -1.06734    -171.75880    -1.06734    0.00000    -1.06734
401422471.70591    0.00000    178.93069    -171.69448    -1.06931    -171.69448    -1.06931    -0.00000    -1.06931
402101480.20259    -0.00000    178.92870    -171.63014    -1.07130    -171.63014    -1.07130    0.00000    -1.07130
402781637.24616    -0.00000    178.92672    -171.56578    -1.07328    -171.56578    -1.07328    -0.00000    -1.07328
403462944.77943    0.00000    178.92473    -171.50140    -1.07527    -171.50140    -1.07527    -0.00000    -1.07527
404145404.74843    0.00000    178.92273    -171.43700    -1.07727    -171.43700    -1.07727    0.00000    -1.07727
404829019.10252    0.00000    178.92073    -171.37258    -1.07927    -171.37258    -1.07927    0.00000    -1.07927
405513789.79436    0.00000    178.91873    -171.30813    -1.08127    -171.30813    -1.08127    -0.00000    -1.08127
406199718.77989    -0.00000    178.91672    -171.24367    -1.08328    -171.24367    -1.08328    -0.00000    -1.08328
406886808.01838    0.00000    178.91471    -171.17919    -1.08529    -171.17919    -1.08529    -0.00000    -1.08529
407575059.47240    0.00000    178.91269    -171.11469    -1.08731    -171.11469    -1.08731    0.00000    -1.08731
408264475.10785    -0.00000    178.91067    -171.05017    -1.08933    -171.05017    -1.08933    0.00000    -1.08933
408955056.89393    0.00000    178.90865    -170.98562    -1.09135    -170.98562    -1.09135    -0.00000    -1.09135
409646806.80322    -0.00000    178.90662    -170.92106    -1.09338    -170.92106    -1.09338    -0.00000    -1.09338
410339726.81159    -0.00000    178.90458    -170.85647    -1.09542    -170.85647    -1.09542    -0.00000    -1.09542
411033818.89827    0.00000    178.90254    -170.79187    -1.09746    -170.79187    -1.09746    0.00000    -1.09746
411729085.04584    0.00000    178.90050    -170.72724    -1.09950    -170.72724    -1.09950    -0.00000    -1.09950
412425527.24023    -0.00000    178.89845    -170.66259    -1.10155    -170.66259    -1.10155    0.00000    -1.10155
413123147.47073    0.00000    178.89640    -170.59792    -1.10360    -170.59792    -1.10360    -0.00000    -1.10360
413821947.73000    -0.00000    178.89434    -170.53323    -1.10566    -170.53323    -1.10566    0.00000    -1.10566
414521930.01406    -0.00000    178.89228    -170.46852    -1.10772    -170.46852    -1.10772    -0.00000    -1.10772
415223096.32231    0.00000    178.89021    -170.40379    -1.10979    -170.40379    -1.10979    -0.00000    -1.10979
415925448.65754    0.00000    178.88814    -170.33903    -1.11186    -170.33903    -1.11186    -0.00000    -1.11186
416628989.02592    0.00000    178.88607    -170.27426    -1.11393    -170.27426    -1.11393    -0.00000    -1.11393
417333719.43701    0.00000    178.88399    -170.20946    -1.11601    -170.20946    -1.11601    0.00000    -1.11601
418039641.90379    0.00000    178.88191    -170.14464    -1.11809    -170.14464    -1.11809    0.00000    -1.11809
418746758.44261    0.00000    178.87982    -170.07980    -1.12018    -170.07980    -1.12018    0.00000    -1.12018
419455071.07326    -0.00000    178.87772    -170.01494    -1.12228    -170.01494    -1.12228    -0.00000    -1.12228
420164581.81893    0.00000    178.87563    -169.95006    -1.12437    -169.95006    -1.12437    -0.00000    -1.12437
420875292.70625    0.00000    178.87352    -169.88515    -1.12648    -169.88515    -1.12648    -0.00000    -1.12648
421587205.76526    -0.00000    178.87142    -169.82022    -1.12858    -169.82022    -1.12858    0.00000    -1.12858
422300323.02943    -0.00000    178.86930    -169.75527    -1.13070    -169.75527    -1.13070    -0.00000    -1.13070
423014646.53570    -0.00000    178.86719    -169.69030    -1.13281    -169.69030    -1.13281    0.00000    -1.13281
423730178.32443    0.00000    178.86507    -169.62530    -1.13493    -169.62530    -1.13493    -0.00000    -1.13493
424446920.43942    0.00000    178.86294    -169.56029    -1.13706    -169.56029    -1.13706    0.00000    -1.13706
425164874.92797    0.00000    178.86081    -169.49525    -1.13919    -169.49525    -1.13919    -0.00000    -1.13919
425884043.84080    0.00000    178.85868    -169.43018    -1.14132    -169.43018    -1.14132    0.00000    -1.14132
426604429.23212    -0.00000    178.85654    -169.36510    -1.14346    -169.36510    -1.14346    -0.00000    -1.14346
427326033.15961    0.00000    178.85439    -169.29999    -1.14561    -169.29999    -1.14561    0.00000    -1.14561
428048857.68443    0.00000    178.85224    -169.23486    -1.14776    -169.23486    -1.14776    -0.00000    -1.14776
428772904.87123    0.00000    178.85009    -169.16971    -1.14991    -169.16971    -1.14991    0.00000    -1.14991
429498176.78815    0.00000    178.84793    -169.10453    -1.15207    -169.10453    -1.15207    0.00000    -1.15207
430224675.50683    -0.00000    178.84576    -169.03933    -1.15424    -169.03933    -1.15424    0.00000    -1.15424
430952403.10242    -0.00000    178.84359    -168.97411    -1.15641    -168.97411    -1.15641    0.00000    -1.15641
431681361.65355    -0.00000    178.84142    -168.90886    -1.15858    -168.90886    -1.15858    0.00000    -1.15858
432411553.24240    0.00000    178.83924    -168.84359    -1.16076    -168.84359    -1.16076    -0.00000    -1.16076
433142979.95467    -0.00000    178.83706    -168.77830    -1.16294    -168.77830    -1.16294    0.00000    -1.16294
433875643.87957    -0.00000    178.83487    -168.71298    -1.16513    -168.71298    -1.16513    0.00000    -1.16513
434609547.10985    -0.00000    178.83268    -168.64764    -1.16732    -168.64764    -1.16732    0.00000    -1.16732
435344691.74181    0.00000    178.83048    -168.58228    -1.16952    -168.58228    -1.16952    -0.00000    -1.16952
436081079.87528    0.00000    178.82828    -168.51689    -1.17172    -168.51689    -1.17172    0.00000    -1.17172
436818713.61366    -0.00000    178.82607    -168.45148    -1.17393    -168.45148    -1.17393    0.00000    -1.17393
437557595.06388    -0.00000    178.82385    -168.38605    -1.17615    -168.38605    -1.17615    0.00000    -1.17615
438297726.33648    0.00000    178.82164    -168.32059    -1.17836    -168.32059    -1.17836    0.00000    -1.17836
439039109.54552    0.00000    178.81941    -168.25511    -1.18059    -168.25511    -1.18059    0.00000    -1.18059
439781746.80866    0.00000    178.81719    -168.18960    -1.18281    -168.18960    -1.18281    0.00000    -1.18281
440525640.24715    0.00000    178.81495    -168.12407    -1.18505    -168.12407    -1.18505    0.00000    -1.18505
441270791.98581    0.00000    178.81271    -168.05851    -1.18729    -168.05851    -1.18729    0.00000    -1.18729
442017204.15307    0.00000    178.81047    -167.99293    -1.18953    -167.99293    -1.18953    0.00000    -1.18953
442764878.88094    0.00000    178.80822    -167.92732    -1.19178    -167.92732    -1.19178    -0.00000    -1.19178
443513818.30506    0.00000    178.80597    -167.86169    -1.19403    -167.86169    -1.19403    0.00000    -1.19403
444264024.56466    0.00000    178.80371    -167.79604    -1.19629    -167.79604    -1.19629    -0.00000    -1.19629
445015499.80261    -0.00000    178.80145    -167.73036    -1.19855    -167.73036    -1.19855    -0.00000    -1.19855
445768246.16540    -0.00000    178.79918    -167.66466    -1.20082    -167.66466    -1.20082    -0.00000    -1.20082
446522265.80313    -0.00000    178.79690    -167.59893    -1.20310    -167.59893    -1.20310    0.00000    -1.20310
447277560.86956    0.00000    178.79462    -167.53317    -1.20538    -167.53317    -1.20538    0.00000    -1.20538
448034133.52208    0.00000    178.79234    -167.46739    -1.20766    -167.46739    -1.20766    0.00000    -1.20766
448791985.92174    -0.00000    178.79005    -167.40159    -1.20995    -167.40159    -1.20995    -0.00000    -1.20995
449551120.23324    0.00000    178.78776    -167.33576    -1.21224    -167.33576    -1.21224    -0.00000    -1.21224
450311538.62494    -0.00000    178.78546    -167.26990    -1.21454    -167.26990    -1.21454    -0.00000    -1.21454
451073243.26886    0.00000    178.78315    -167.20402    -1.21685    -167.20402    -1.21685    0.00000    -1.21685
451836236.34072    0.00000    178.78084    -167.13811    -1.21916    -167.13811    -1.21916    -0.00000    -1.21916
452600520.01990    0.00000    178.77852    -167.07218    -1.22148    -167.07218    -1.22148    -0.00000    -1.22148
453366096.48946    -0.00000    178.77620    -167.00622    -1.22380    -167.00622    -1.22380    -0.00000    -1.22380
454132967.93617    0.00000    178.77388    -166.94023    -1.22612    -166.94023    -1.22612    -0.00000    -1.22612
454901136.55049    0.00000    178.77154    -166.87422    -1.22846    -166.87422    -1.22846    0.00000    -1.22846
455670604.52658    -0.00000    178.76921    -166.80818    -1.23079    -166.80818    -1.23079    -0.00000    -1.23079
456441374.06233    0.00000    178.76687    -166.74212    -1.23313    -166.74212    -1.23313    0.00000    -1.23313
457213447.35933    0.00000    178.76452    -166.67603    -1.23548    -166.67603    -1.23548    0.00000    -1.23548
457986826.62291    0.00000    178.76216    -166.60991    -1.23784    -166.60991    -1.23784    0.00000    -1.23784
458761514.06210    0.00000    178.75980    -166.54377    -1.24020    -166.54377    -1.24020    -0.00000    -1.24020
459537511.88970    0.00000    178.75744    -166.47759    -1.24256    -166.47759    -1.24256    -0.00000    -1.24256
460314822.32223    0.00000    178.75507    -166.41140    -1.24493    -166.41140    -1.24493    -0.00000    -1.24493
461093447.57999    0.00000    178.75270    -166.34517    -1.24730    -166.34517    -1.24730    -0.00000    -1.24730
461873389.88699    -0.00000    178.75031    -166.27892    -1.24969    -166.27892    -1.24969    -0.00000    -1.24969
