! rf-tools.com
! Date: Thu Jan 30 2020 11:13:20 GMT+0000 (格林尼治标准时间)
# Hz S DB R 50.00
!Frequency        S11 dB       S11 Deg       S21 dB      S21 Deg      S12 dB      S12 Deg      S22 dB       S22 Deg      
347119048.27170    -0.00000    179.50554    -88.58031    179.50554    -88.58031    179.50554    -0.00000    -0.49446
347706202.20489    -0.00000    179.50464    -88.54887    179.50464    -88.54887    179.50464    -0.00000    -0.49536
348294349.31245    -0.00000    179.50374    -88.51743    179.50374    -88.51743    179.50374    -0.00000    -0.49626
348883491.27433    -0.00000    179.50284    -88.48598    179.50284    -88.48598    179.50284    -0.00000    -0.49716
349473629.77335    -0.00000    179.50194    -88.45452    179.50194    -88.45452    179.50194    -0.00000    -0.49806
350064766.49514    -0.00000    179.50104    -88.42305    179.50104    -88.42305    179.50104    -0.00000    -0.49896
350656903.12821    -0.00000    179.50013    -88.39158    179.50013    -88.39158    179.50013    -0.00000    -0.49987
351250041.36392    -0.00000    179.49923    -88.36010    179.49923    -88.36010    179.49923    -0.00000    -0.50077
351844182.89648    -0.00000    179.49832    -88.32861    179.49832    -88.32861    179.49832    -0.00000    -0.50168
352439329.42297    -0.00000    179.49741    -88.29712    179.49741    -88.29712    179.49741    -0.00000    -0.50259
353035482.64334    -0.00000    179.49650    -88.26561    179.49650    -88.26561    179.49650    -0.00000    -0.50350
353632644.26044    -0.00000    179.49558    -88.23410    179.49558    -88.23410    179.49558    -0.00000    -0.50442
354230815.97995    -0.00000    179.49467    -88.20258    179.49467    -88.20258    179.49467    -0.00000    -0.50533
354829999.51049    -0.00000    179.49375    -88.17106    179.49375    -88.17106    179.49375    -0.00000    -0.50625
355430196.56353    -0.00000    179.49283    -88.13953    179.49283    -88.13953    179.49283    -0.00000    -0.50717
356031408.85345    -0.00000    179.49191    -88.10799    179.49191    -88.10799    179.49191    -0.00000    -0.50809
356633638.09753    -0.00000    179.49098    -88.07644    179.49098    -88.07644    179.49098    -0.00000    -0.50902
357236886.01596    -0.00000    179.49006    -88.04488    179.49006    -88.04488    179.49006    -0.00000    -0.50994
357841154.33182    -0.00000    179.48913    -88.01332    179.48913    -88.01332    179.48913    -0.00000    -0.51087
358446444.77114    -0.00000    179.48820    -87.98175    179.48820    -87.98175    179.48820    -0.00000    -0.51180
359052759.06283    -0.00000    179.48727    -87.95017    179.48727    -87.95017    179.48727    -0.00000    -0.51273
359660098.93875    -0.00000    179.48634    -87.91858    179.48634    -87.91858    179.48634    -0.00000    -0.51366
360268466.13368    -0.00000    179.48540    -87.88698    179.48540    -87.88698    179.48540    -0.00000    -0.51460
360877862.38533    -0.00000    179.48446    -87.85538    179.48446    -87.85538    179.48446    -0.00000    -0.51554
361488289.43437    -0.00000    179.48353    -87.82377    179.48353    -87.82377    179.48353    -0.00000    -0.51647
362099749.02438    -0.00000    179.48258    -87.79215    179.48258    -87.79215    179.48258    -0.00000    -0.51742
362712242.90193    -0.00000    179.48164    -87.76053    179.48164    -87.76053    179.48164    -0.00000    -0.51836
363325772.81651    -0.00000    179.48070    -87.72889    179.48070    -87.72889    179.48070    -0.00000    -0.51930
363940340.52059    -0.00000    179.47975    -87.69725    179.47975    -87.69725    179.47975    -0.00000    -0.52025
364555947.76959    -0.00000    179.47880    -87.66560    179.47880    -87.66560    179.47880    -0.00000    -0.52120
365172596.32192    -0.00000    179.47785    -87.63394    179.47785    -87.63394    179.47785    -0.00000    -0.52215
365790287.93893    -0.00000    179.47690    -87.60227    179.47690    -87.60227    179.47690    -0.00000    -0.52310
366409024.38499    -0.00000    179.47594    -87.57060    179.47594    -87.57060    179.47594    -0.00000    -0.52406
367028807.42742    -0.00000    179.47499    -87.53892    179.47499    -87.53892    179.47499    -0.00000    -0.52501
367649638.83655    -0.00000    179.47403    -87.50723    179.47403    -87.50723    179.47403    -0.00000    -0.52597
368271520.38570    -0.00000    179.47307    -87.47553    179.47307    -87.47553    179.47307    -0.00000    -0.52693
368894453.85118    -0.00000    179.47210    -87.44382    179.47210    -87.44382    179.47210    -0.00000    -0.52790
369518441.01233    -0.00000    179.47114    -87.41210    179.47114    -87.41210    179.47114    -0.00000    -0.52886
370143483.65147    -0.00000    179.47017    -87.38038    179.47017    -87.38038    179.47017    -0.00000    -0.52983
370769583.55394    -0.00000    179.46920    -87.34865    179.46920    -87.34865    179.46920    -0.00000    -0.53080
371396742.50812    -0.00000    179.46823    -87.31691    179.46823    -87.31691    179.46823    -0.00000    -0.53177
372024962.30540    -0.00000    179.46726    -87.28516    179.46726    -87.28516    179.46726    -0.00000    -0.53274
372654244.74020    -0.00000    179.46629    -87.25340    179.46629    -87.25340    179.46629    -0.00000    -0.53371
373284591.60998    -0.00000    179.46531    -87.22163    179.46531    -87.22163    179.46531    -0.00000    -0.53469
373916004.71524    -0.00000    179.46433    -87.18986    179.46433    -87.18986    179.46433    -0.00000    -0.53567
374548485.85952    -0.00000    179.46335    -87.15808    179.46335    -87.15808    179.46335    -0.00000    -0.53665
375182036.84941    -0.00000    179.46237    -87.12628    179.46237    -87.12628    179.46237    -0.00000    -0.53763
375816659.49456    -0.00000    179.46138    -87.09448    179.46138    -87.09448    179.46138    -0.00000    -0.53862
376452355.60769    -0.00000    179.46039    -87.06267    179.46039    -87.06267    179.46039    -0.00000    -0.53961
377089127.00458    -0.00000    179.45940    -87.03086    179.45940    -87.03086    179.45940    -0.00000    -0.54060
377726975.50407    -0.00000    179.45841    -86.99903    179.45841    -86.99903    179.45841    -0.00000    -0.54159
378365902.92808    -0.00000    179.45742    -86.96720    179.45742    -86.96720    179.45742    -0.00000    -0.54258
379005911.10163    -0.00000    179.45642    -86.93535    179.45642    -86.93535    179.45642    -0.00000    -0.54358
379647001.85281    -0.00000    179.45543    -86.90350    179.45543    -86.90350    179.45543    -0.00000    -0.54457
380289177.01281    -0.00000    179.45443    -86.87164    179.45443    -86.87164    179.45443    -0.00000    -0.54557
380932438.41590    -0.00000    179.45342    -86.83977    179.45342    -86.83977    179.45342    -0.00000    -0.54658
381576787.89949    -0.00000    179.45242    -86.80789    179.45242    -86.80789    179.45242    -0.00000    -0.54758
382222227.30405    -0.00000    179.45141    -86.77600    179.45141    -86.77600    179.45141    -0.00000    -0.54859
382868758.47320    -0.00000    179.45041    -86.74411    179.45041    -86.74411    179.45041    -0.00000    -0.54959
383516383.25367    -0.00000    179.44940    -86.71220    179.44940    -86.71220    179.44940    -0.00000    -0.55060
384165103.49530    -0.00000    179.44838    -86.68029    179.44838    -86.68029    179.44838    -0.00000    -0.55162
384814921.05108    -0.00000    179.44737    -86.64836    179.44737    -86.64836    179.44737    -0.00000    -0.55263
385465837.77711    -0.00000    179.44635    -86.61643    179.44635    -86.61643    179.44635    -0.00000    -0.55365
386117855.53266    -0.00000    179.44533    -86.58449    179.44533    -86.58449    179.44533    -0.00000    -0.55467
386770976.18011    -0.00000    179.44431    -86.55254    179.44431    -86.55254    179.44431    -0.00000    -0.55569
387425201.58502    -0.00000    179.44329    -86.52058    179.44329    -86.52058    179.44329    -0.00000    -0.55671
388080533.61609    -0.00000    179.44226    -86.48861    179.44226    -86.48861    179.44226    -0.00000    -0.55774
388736974.14519    -0.00000    179.44124    -86.45663    179.44124    -86.45663    179.44124    -0.00000    -0.55876
389394525.04734    -0.00000    179.44021    -86.42464    179.44021    -86.42464    179.44021    -0.00000    -0.55979
390053188.20075    -0.00000    179.43917    -86.39265    179.43917    -86.39265    179.43917    -0.00000    -0.56083
390712965.48680    -0.00000    179.43814    -86.36064    179.43814    -86.36064    179.43814    -0.00000    -0.56186
391373858.79005    -0.00000    179.43710    -86.32862    179.43710    -86.32862    179.43710    -0.00000    -0.56290
392035869.99825    -0.00000    179.43606    -86.29660    179.43606    -86.29660    179.43606    -0.00000    -0.56394
392699001.00235    -0.00000    179.43502    -86.26456    179.43502    -86.26456    179.43502    -0.00000    -0.56498
393363253.69648    -0.00000    179.43398    -86.23252    179.43398    -86.23252    179.43398    -0.00000    -0.56602
394028629.97799    -0.00000    179.43293    -86.20047    179.43293    -86.20047    179.43293    -0.00000    -0.56707
394695131.74743    -0.00000    179.43189    -86.16840    179.43189    -86.16840    179.43189    -0.00000    -0.56811
395362760.90858    -0.00000    179.43084    -86.13633    179.43084    -86.13633    179.43084    -0.00000    -0.56916
396031519.36842    -0.00000    179.42979    -86.10425    179.42979    -86.10425    179.42979    -0.00000    -0.57021
396701409.03717    -0.00000    179.42873    -86.07216    179.42873    -86.07216    179.42873    -0.00000    -0.57127
397372431.82828    -0.00000    179.42767    -86.04005    179.42767    -86.04005    179.42767    -0.00000    -0.57233
398044589.65843    -0.00000    179.42662    -86.00794    179.42662    -86.00794    179.42662    -0.00000    -0.57338
398717884.44754    -0.00000    179.42555    -85.97582    179.42555    -85.97582    179.42555    -0.00000    -0.57445
399392318.11879    -0.00000    179.42449    -85.94369    179.42449    -85.94369    179.42449    -0.00000    -0.57551
400067892.59860    -0.00000    179.42342    -85.91155    179.42342    -85.91155    179.42342    -0.00000    -0.57658
400744609.81666    -0.00000    179.42236    -85.87940    179.42236    -85.87940    179.42236    -0.00000    -0.57764
401422471.70591    -0.00000    179.42129    -85.84724    179.42129    -85.84724    179.42129    -0.00000    -0.57871
402101480.20259    -0.00000    179.42021    -85.81507    179.42021    -85.81507    179.42021    -0.00000    -0.57979
402781637.24616    -0.00000    179.41914    -85.78289    179.41914    -85.78289    179.41914    -0.00000    -0.58086
403462944.77943    -0.00000    179.41806    -85.75070    179.41806    -85.75070    179.41806    -0.00000    -0.58194
404145404.74843    -0.00000    179.41698    -85.71850    179.41698    -85.71850    179.41698    -0.00000    -0.58302
404829019.10252    -0.00000    179.41590    -85.68629    179.41590    -85.68629    179.41590    -0.00000    -0.58410
405513789.79436    -0.00000    179.41481    -85.65407    179.41481    -85.65407    179.41481    -0.00000    -0.58519
406199718.77989    -0.00000    179.41373    -85.62184    179.41373    -85.62184    179.41373    -0.00000    -0.58627
406886808.01838    -0.00000    179.41264    -85.58960    179.41264    -85.58960    179.41264    -0.00000    -0.58736
407575059.47240    -0.00000    179.41155    -85.55734    179.41155    -85.55734    179.41155    -0.00000    -0.58845
408264475.10785    -0.00000    179.41045    -85.52508    179.41045    -85.52508    179.41045    -0.00000    -0.58955
408955056.89393    -0.00000    179.40936    -85.49281    179.40936    -85.49281    179.40936    -0.00000    -0.59064
409646806.80322    -0.00000    179.40826    -85.46053    179.40826    -85.46053    179.40826    -0.00000    -0.59174
410339726.81159    -0.00000    179.40716    -85.42824    179.40716    -85.42824    179.40716    -0.00000    -0.59284
411033818.89827    -0.00000    179.40605    -85.39593    179.40605    -85.39593    179.40605    -0.00000    -0.59395
411729085.04584    -0.00000    179.40495    -85.36362    179.40495    -85.36362    179.40495    -0.00000    -0.59505
412425527.24023    -0.00000    179.40384    -85.33130    179.40384    -85.33130    179.40384    -0.00000    -0.59616
413123147.47073    -0.00000    179.40273    -85.29896    179.40273    -85.29896    179.40273    -0.00000    -0.59727
413821947.73000    -0.00000    179.40162    -85.26662    179.40162    -85.26662    179.40162    -0.00000    -0.59838
414521930.01406    -0.00000    179.40050    -85.23426    179.40050    -85.23426    179.40050    -0.00000    -0.59950
415223096.32231    -0.00000    179.39938    -85.20189    179.39938    -85.20189    179.39938    -0.00000    -0.60062
415925448.65754    -0.00000    179.39826    -85.16952    179.39826    -85.16952    179.39826    -0.00000    -0.60174
416628989.02592    -0.00000    179.39714    -85.13713    179.39714    -85.13713    179.39714    -0.00000    -0.60286
417333719.43701    -0.00000    179.39601    -85.10473    179.39601    -85.10473    179.39601    -0.00000    -0.60399
418039641.90379    -0.00000    179.39489    -85.07232    179.39489    -85.07232    179.39489    -0.00000    -0.60511
418746758.44261    -0.00000    179.39375    -85.03990    179.39375    -85.03990    179.39375    -0.00000    -0.60625
419455071.07326    -0.00000    179.39262    -85.00747    179.39262    -85.00747    179.39262    -0.00000    -0.60738
420164581.81893    -0.00000    179.39149    -84.97503    179.39149    -84.97503    179.39149    -0.00000    -0.60851
420875292.70625    -0.00000    179.39035    -84.94257    179.39035    -84.94257    179.39035    -0.00000    -0.60965
421587205.76526    -0.00000    179.38921    -84.91011    179.38921    -84.91011    179.38921    -0.00000    -0.61079
422300323.02943    -0.00000    179.38807    -84.87764    179.38807    -84.87764    179.38807    -0.00000    -0.61193
423014646.53570    -0.00000    179.38692    -84.84515    179.38692    -84.84515    179.38692    -0.00000    -0.61308
423730178.32443    -0.00000    179.38577    -84.81265    179.38577    -84.81265    179.38577    -0.00000    -0.61423
424446920.43942    -0.00000    179.38462    -84.78014    179.38462    -84.78014    179.38462    -0.00000    -0.61538
425164874.92797    -0.00000    179.38347    -84.74762    179.38347    -84.74762    179.38347    -0.00000    -0.61653
425884043.84080    -0.00000    179.38231    -84.71509    179.38231    -84.71509    179.38231    -0.00000    -0.61769
426604429.23212    -0.00000    179.38115    -84.68255    179.38115    -84.68255    179.38115    -0.00000    -0.61885
427326033.15961    -0.00000    179.37999    -84.65000    179.37999    -84.65000    179.37999    -0.00000    -0.62001
428048857.68443    -0.00000    179.37883    -84.61743    179.37883    -84.61743    179.37883    -0.00000    -0.62117
428772904.87123    -0.00000    179.37766    -84.58485    179.37766    -84.58485    179.37766    -0.00000    -0.62234
429498176.78815    -0.00000    179.37650    -84.55227    179.37650    -84.55227    179.37650    -0.00000    -0.62350
430224675.50683    -0.00000    179.37532    -84.51967    179.37532    -84.51967    179.37532    -0.00000    -0.62468
430952403.10242    -0.00000    179.37415    -84.48705    179.37415    -84.48705    179.37415    -0.00000    -0.62585
431681361.65355    -0.00000    179.37297    -84.45443    179.37297    -84.45443    179.37297    -0.00000    -0.62703
432411553.24240    -0.00000    179.37179    -84.42180    179.37179    -84.42180    179.37179    -0.00000    -0.62821
433142979.95467    -0.00000    179.37061    -84.38915    179.37061    -84.38915    179.37061    -0.00000    -0.62939
433875643.87957    -0.00000    179.36943    -84.35649    179.36943    -84.35649    179.36943    -0.00000    -0.63057
434609547.10985    -0.00000    179.36824    -84.32382    179.36824    -84.32382    179.36824    -0.00000    -0.63176
435344691.74181    -0.00000    179.36705    -84.29114    179.36705    -84.29114    179.36705    -0.00000    -0.63295
436081079.87528    -0.00000    179.36586    -84.25845    179.36586    -84.25845    179.36586    -0.00000    -0.63414
436818713.61366    -0.00000    179.36466    -84.22574    179.36466    -84.22574    179.36466    -0.00000    -0.63534
437557595.06388    -0.00000    179.36347    -84.19302    179.36347    -84.19302    179.36347    -0.00000    -0.63653
438297726.33648    -0.00000    179.36227    -84.16029    179.36227    -84.16029    179.36227    -0.00000    -0.63773
439039109.54552    -0.00000    179.36106    -84.12755    179.36106    -84.12755    179.36106    -0.00000    -0.63894
439781746.80866    -0.00000    179.35986    -84.09480    179.35986    -84.09480    179.35986    -0.00000    -0.64014
440525640.24715    -0.00000    179.35865    -84.06203    179.35865    -84.06203    179.35865    -0.00000    -0.64135
441270791.98581    -0.00000    179.35744    -84.02926    179.35744    -84.02926    179.35744    -0.00000    -0.64256
442017204.15307    -0.00000    179.35622    -83.99646    179.35622    -83.99646    179.35622    -0.00000    -0.64378
442764878.88094    -0.00000    179.35501    -83.96366    179.35501    -83.96366    179.35501    -0.00000    -0.64499
443513818.30506    -0.00000    179.35379    -83.93085    179.35379    -83.93085    179.35379    -0.00000    -0.64621
444264024.56466    -0.00000    179.35256    -83.89802    179.35256    -83.89802    179.35256    -0.00000    -0.64744
445015499.80261    -0.00000    179.35134    -83.86518    179.35134    -83.86518    179.35134    -0.00000    -0.64866
445768246.16540    -0.00000    179.35011    -83.83233    179.35011    -83.83233    179.35011    -0.00000    -0.64989
446522265.80313    -0.00000    179.34888    -83.79946    179.34888    -83.79946    179.34888    -0.00000    -0.65112
447277560.86956    -0.00000    179.34765    -83.76659    179.34765    -83.76659    179.34765    -0.00000    -0.65235
448034133.52208    -0.00000    179.34641    -83.73370    179.34641    -83.73370    179.34641    -0.00000    -0.65359
448791985.92174    -0.00000    179.34517    -83.70079    179.34517    -83.70079    179.34517    -0.00000    -0.65483
449551120.23324    -0.00000    179.34393    -83.66788    179.34393    -83.66788    179.34393    -0.00000    -0.65607
450311538.62494    -0.00000    179.34269    -83.63495    179.34269    -83.63495    179.34269    -0.00000    -0.65731
451073243.26886    -0.00000    179.34144    -83.60201    179.34144    -83.60201    179.34144    -0.00000    -0.65856
451836236.34072    -0.00000    179.34019    -83.56905    179.34019    -83.56905    179.34019    -0.00000    -0.65981
452600520.01990    -0.00000    179.33893    -83.53609    179.33893    -83.53609    179.33893    -0.00000    -0.66107
453366096.48946    -0.00000    179.33768    -83.50311    179.33768    -83.50311    179.33768    -0.00000    -0.66232
454132967.93617    -0.00000    179.33642    -83.47012    179.33642    -83.47012    179.33642    -0.00000    -0.66358
454901136.55049    -0.00000    179.33516    -83.43711    179.33516    -83.43711    179.33516    -0.00000    -0.66484
455670604.52658    -0.00000    179.33389    -83.40409    179.33389    -83.40409    179.33389    -0.00000    -0.66611
456441374.06233    -0.00000    179.33262    -83.37106    179.33262    -83.37106    179.33262    -0.00000    -0.66738
457213447.35933    -0.00000    179.33135    -83.33801    179.33135    -83.33801    179.33135    -0.00000    -0.66865
457986826.62291    -0.00000    179.33008    -83.30495    179.33008    -83.30495    179.33008    -0.00000    -0.66992
458761514.06210    -0.00000    179.32880    -83.27188    179.32880    -83.27188    179.32880    -0.00000    -0.67120
459537511.88970    -0.00000    179.32752    -83.23880    179.32752    -83.23880    179.32752    -0.00000    -0.67248
460314822.32223    -0.00000    179.32624    -83.20570    179.32624    -83.20570    179.32624    -0.00000    -0.67376
461093447.57999    -0.00000    179.32495    -83.17259    179.32495    -83.17259    179.32495    -0.00000    -0.67505
