! rf-tools.com
! Date: Thu Jan 30 2020 11:38:37 GMT+0000 (格林尼治标准时间)
# Hz S DB R 50.00
!Frequency        S11 dB       S11 Deg       S21 dB      S21 Deg      S12 dB      S12 Deg      S22 dB       S22 Deg      
600000.00000    -0.00000    179.66626    -274.47273    89.66626    -274.47273    89.66626    -0.00000    179.66626
604438.08460    -0.00000    179.66379    -274.15267    89.66379    -274.15267    89.66379    -0.00000    179.66379
608908.99685    0.00000    179.66130    -273.83262    89.66130    -273.83262    89.66130    0.00000    179.66130
613412.97959    -0.00000    179.65880    -273.51256    89.65880    -273.51256    89.65880    -0.00000    179.65880
617950.27742    -0.00000    179.65627    -273.19250    89.65627    -273.19250    89.65627    -0.00000    179.65627
622521.13676    -0.00000    179.65373    -272.87245    89.65373    -272.87245    89.65373    -0.00000    179.65373
627125.80588    0.00000    179.65117    -272.55239    89.65117    -272.55239    89.65117    0.00000    179.65117
631764.53485    0.00000    179.64859    -272.23233    89.64859    -272.23233    89.64859    0.00000    179.64859
636437.57560    -0.00000    179.64599    -271.91227    89.64599    -271.91227    89.64599    -0.00000    179.64599
641145.18194    0.00000    179.64337    -271.59222    89.64337    -271.59222    89.64337    0.00000    179.64337
645887.60953    0.00000    179.64073    -271.27216    89.64073    -271.27216    89.64073    0.00000    179.64073
650665.11595    0.00000    179.63807    -270.95210    89.63807    -270.95210    89.63807    0.00000    179.63807
655477.96067    0.00000    179.63540    -270.63204    89.63540    -270.63204    89.63540    0.00000    179.63540
660326.40507    -0.00000    179.63270    -270.31199    89.63270    -270.31199    89.63270    -0.00000    179.63270
665210.71248    0.00000    179.62998    -269.99193    89.62998    -269.99193    89.62998    0.00000    179.62998
670131.14818    0.00000    179.62725    -269.67187    89.62725    -269.67187    89.62725    0.00000    179.62725
675087.97939    0.00000    179.62449    -269.35182    89.62449    -269.35182    89.62449    0.00000    179.62449
680081.47533    0.00000    179.62171    -269.03176    89.62171    -269.03176    89.62171    0.00000    179.62171
685111.90720    -0.00000    179.61891    -268.71170    89.61891    -268.71170    89.61891    -0.00000    179.61891
690179.54821    0.00000    179.61609    -268.39164    89.61609    -268.39164    89.61609    0.00000    179.61609
695284.67358    0.00000    179.61326    -268.07159    89.61326    -268.07159    89.61326    0.00000    179.61326
700427.56058    0.00000    179.61039    -267.75153    89.61039    -267.75153    89.61039    0.00000    179.61039
705608.48853    -0.00000    179.60751    -267.43147    89.60751    -267.43147    89.60751    -0.00000    179.60751
710827.73880    -0.00000    179.60461    -267.11141    89.60461    -267.11141    89.60461    -0.00000    179.60461
716085.59487    0.00000    179.60168    -266.79136    89.60168    -266.79136    89.60168    0.00000    179.60168
721382.34228    0.00000    179.59874    -266.47130    89.59874    -266.47130    89.59874    0.00000    179.59874
726718.26872    0.00000    179.59577    -266.15124    89.59577    -266.15124    89.59577    0.00000    179.59577
732093.66398    -0.00000    179.59278    -265.83118    89.59278    -265.83118    89.59278    -0.00000    179.59278
737508.82000    -0.00000    179.58977    -265.51113    89.58977    -265.51113    89.58977    -0.00000    179.58977
742964.03090    0.00000    179.58673    -265.19107    89.58673    -265.19107    89.58673    0.00000    179.58673
748459.59293    0.00000    179.58368    -264.87101    89.58368    -264.87101    89.58368    0.00000    179.58368
753995.80459    0.00000    179.58060    -264.55095    89.58060    -264.55095    89.58060    0.00000    179.58060
759572.96653    -0.00000    179.57750    -264.23090    89.57750    -264.23090    89.57750    -0.00000    179.57750
765191.38167    0.00000    179.57437    -263.91084    89.57437    -263.91084    89.57437    0.00000    179.57437
770851.35515    0.00000    179.57122    -263.59078    89.57122    -263.59078    89.57122    0.00000    179.57122
776553.19436    0.00000    179.56805    -263.27072    89.56805    -263.27072    89.56805    0.00000    179.56805
782297.20898    0.00000    179.56486    -262.95067    89.56486    -262.95067    89.56486    0.00000    179.56486
788083.71097    0.00000    179.56164    -262.63061    89.56164    -262.63061    89.56164    0.00000    179.56164
793913.01460    -0.00000    179.55839    -262.31055    89.55839    -262.31055    89.55839    -0.00000    179.55839
799785.43647    -0.00000    179.55513    -261.99049    89.55513    -261.99049    89.55513    -0.00000    179.55513
805701.29552    -0.00000    179.55184    -261.67044    89.55184    -261.67044    89.55184    -0.00000    179.55184
811660.91303    0.00000    179.54852    -261.35038    89.54852    -261.35038    89.54852    0.00000    179.54852
817664.61270    -0.00000    179.54518    -261.03032    89.54518    -261.03032    89.54518    -0.00000    179.54518
823712.72057    0.00000    179.54182    -260.71026    89.54182    -260.71026    89.54182    0.00000    179.54182
829805.56513    -0.00000    179.53843    -260.39021    89.53843    -260.39021    89.53843    -0.00000    179.53843
835943.47730    0.00000    179.53501    -260.07015    89.53501    -260.07015    89.53501    0.00000    179.53501
842126.79042    0.00000    179.53158    -259.75009    89.53158    -259.75009    89.53158    0.00000    179.53158
848355.84031    -0.00000    179.52811    -259.43003    89.52811    -259.43003    89.52811    -0.00000    179.52811
854630.96529    0.00000    179.52462    -259.10998    89.52462    -259.10998    89.52462    0.00000    179.52462
860952.50617    0.00000    179.52110    -258.78992    89.52110    -258.78992    89.52110    0.00000    179.52110
867320.80626    0.00000    179.51756    -258.46986    89.51756    -258.46986    89.51756    0.00000    179.51756
873736.21145    0.00000    179.51399    -258.14980    89.51399    -258.14980    89.51399    0.00000    179.51399
880199.07015    0.00000    179.51040    -257.82975    89.51040    -257.82975    89.51040    0.00000    179.51040
886709.73338    -0.00000    179.50678    -257.50969    89.50678    -257.50969    89.50678    -0.00000    179.50678
893268.55473    0.00000    179.50313    -257.18963    89.50313    -257.18963    89.50313    0.00000    179.50313
899875.89042    0.00000    179.49945    -256.86957    89.49945    -256.86957    89.49945    0.00000    179.49945
906532.09931    -0.00000    179.49575    -256.54952    89.49575    -256.54952    89.49575    -0.00000    179.49575
913237.54289    0.00000    179.49202    -256.22946    89.49202    -256.22946    89.49202    0.00000    179.49202
919992.58534    -0.00000    179.48826    -255.90940    89.48826    -255.90940    89.48826    -0.00000    179.48826
926797.59355    0.00000    179.48448    -255.58934    89.48448    -255.58934    89.48448    0.00000    179.48448
933652.93709    0.00000    179.48066    -255.26929    89.48066    -255.26929    89.48066    0.00000    179.48066
940558.98829    0.00000    179.47682    -254.94923    89.47682    -254.94923    89.47682    0.00000    179.47682
947516.12222    -0.00000    179.47295    -254.62917    89.47295    -254.62917    89.47295    -0.00000    179.47295
954524.71674    -0.00000    179.46905    -254.30911    89.46905    -254.30911    89.46905    -0.00000    179.46905
961585.15248    0.00000    179.46513    -253.98906    89.46513    -253.98906    89.46513    0.00000    179.46513
968697.81290    0.00000    179.46117    -253.66900    89.46117    -253.66900    89.46117    0.00000    179.46117
975863.08431    -0.00000    179.45719    -253.34894    89.45719    -253.34894    89.45719    -0.00000    179.45719
983081.35585    -0.00000    179.45317    -253.02888    89.45317    -253.02888    89.45317    -0.00000    179.45317
990353.01955    0.00000    179.44913    -252.70882    89.44913    -252.70882    89.44913    0.00000    179.44913
997678.47036    0.00000    179.44505    -252.38877    89.44505    -252.38877    89.44505    0.00000    179.44505
1005058.10611    0.00000    179.44095    -252.06871    89.44095    -252.06871    89.44095    0.00000    179.44095
1012492.32762    0.00000    179.43681    -251.74865    89.43681    -251.74865    89.43681    0.00000    179.43681
1019981.53862    -0.00000    179.43265    -251.42859    89.43265    -251.42859    89.43265    -0.00000    179.43265
1027526.14589    -0.00000    179.42845    -251.10854    89.42845    -251.10854    89.42845    -0.00000    179.42845
1035126.55916    0.00000    179.42422    -250.78848    89.42422    -250.78848    89.42422    0.00000    179.42422
1042783.19122    -0.00000    179.41996    -250.46842    89.41996    -250.46842    89.41996    -0.00000    179.41996
1050496.45792    0.00000    179.41567    -250.14836    89.41567    -250.14836    89.41567    0.00000    179.41567
1058266.77817    0.00000    179.41135    -249.82830    89.41135    -249.82830    89.41135    0.00000    179.41135
1066094.57399    0.00000    179.40699    -249.50825    89.40699    -249.50825    89.40699    0.00000    179.40699
1073980.27050    -0.00000    179.40261    -249.18819    89.40261    -249.18819    89.40261    -0.00000    179.40261
1081924.29600    0.00000    179.39819    -248.86813    89.39819    -248.86813    89.39819    0.00000    179.39819
1089927.08192    0.00000    179.39374    -248.54807    89.39374    -248.54807    89.39374    0.00000    179.39374
1097989.06291    -0.00000    179.38925    -248.22801    89.38925    -248.22801    89.38925    -0.00000    179.38925
1106110.67683    0.00000    179.38474    -247.90796    89.38474    -247.90796    89.38474    0.00000    179.38474
1114292.36476    0.00000    179.38019    -247.58790    89.38019    -247.58790    89.38019    0.00000    179.38019
1122534.57106    0.00000    179.37560    -247.26784    89.37560    -247.26784    89.37560    0.00000    179.37560
1130837.74338    -0.00000    179.37098    -246.94778    89.37098    -246.94778    89.37098    -0.00000    179.37098
1139202.33267    -0.00000    179.36633    -246.62773    89.36633    -246.62773    89.36633    -0.00000    179.36633
1147628.79321    -0.00000    179.36164    -246.30767    89.36164    -246.30767    89.36164    -0.00000    179.36164
1156117.58266    0.00000    179.35692    -245.98761    89.35692    -245.98761    89.35692    0.00000    179.35692
1164669.16206    -0.00000    179.35216    -245.66755    89.35216    -245.66755    89.35216    -0.00000    179.35216
1173283.99584    0.00000    179.34737    -245.34749    89.34737    -245.34749    89.34737    0.00000    179.34737
1181962.55189    -0.00000    179.34254    -245.02744    89.34254    -245.02744    89.34254    -0.00000    179.34254
1190705.30156    0.00000    179.33768    -244.70738    89.33768    -244.70738    89.33768    0.00000    179.33768
1199512.71965    0.00000    179.33278    -244.38732    89.33278    -244.38732    89.33278    0.00000    179.33278
1208385.28453    0.00000    179.32785    -244.06726    89.32785    -244.06726    89.32785    0.00000    179.32785
1217323.47806    -0.00000    179.32287    -243.74720    89.32287    -243.74720    89.32287    -0.00000    179.32287
1226327.78570    -0.00000    179.31787    -243.42715    89.31787    -243.42715    89.31787    -0.00000    179.31787
1235398.69646    0.00000    179.31282    -243.10709    89.31282    -243.10709    89.31282    0.00000    179.31282
1244536.70301    -0.00000    179.30774    -242.78703    89.30774    -242.78703    89.30774    -0.00000    179.30774
1253742.30163    0.00000    179.30262    -242.46697    89.30262    -242.46697    89.30262    0.00000    179.30262
1263015.99229    0.00000    179.29746    -242.14691    89.29746    -242.14691    89.29746    0.00000    179.29746
1272358.27866    -0.00000    179.29226    -241.82685    89.29226    -241.82685    89.29226    -0.00000    179.29226
1281769.66813    0.00000    179.28703    -241.50680    89.28703    -241.50680    89.28703    0.00000    179.28703
1291250.67183    -0.00000    179.28175    -241.18674    89.28175    -241.18674    89.28175    -0.00000    179.28175
1300801.80470    0.00000    179.27644    -240.86668    89.27644    -240.86668    89.27644    0.00000    179.27644
1310423.58546    0.00000    179.27109    -240.54662    89.27109    -240.54662    89.27109    0.00000    179.27109
1320116.53668    0.00000    179.26570    -240.22656    89.26570    -240.22656    89.26570    0.00000    179.26570
1329881.18479    0.00000    179.26027    -239.90651    89.26027    -239.90651    89.26027    0.00000    179.26027
1339718.06013    0.00000    179.25479    -239.58645    89.25479    -239.58645    89.25479    0.00000    179.25479
1349627.69694    0.00000    179.24928    -239.26639    89.24928    -239.26639    89.24928    0.00000    179.24928
1359610.63344    0.00000    179.24373    -238.94633    89.24373    -238.94633    89.24373    0.00000    179.24373
1369667.41179    0.00000    179.23813    -238.62627    89.23813    -238.62627    89.23813    0.00000    179.23813
1379798.57820    0.00000    179.23250    -238.30621    89.23250    -238.30621    89.23250    0.00000    179.23250
1390004.68289    0.00000    179.22682    -237.98615    89.22682    -237.98615    89.22682    0.00000    179.22682
1400286.28018    -0.00000    179.22110    -237.66610    89.22110    -237.66610    89.22110    -0.00000    179.22110
1410643.92847    -0.00000    179.21534    -237.34604    89.21534    -237.34604    89.21534    -0.00000    179.21534
1421078.19029    0.00000    179.20954    -237.02598    89.20954    -237.02598    89.20954    0.00000    179.20954
1431589.63234    0.00000    179.20369    -236.70592    89.20369    -236.70592    89.20369    0.00000    179.20369
1442178.82550    -0.00000    179.19780    -236.38586    89.19780    -236.38586    89.19780    -0.00000    179.19780
1452846.34489    0.00000    179.19187    -236.06580    89.19187    -236.06580    89.19187    0.00000    179.19187
1463592.76987    0.00000    179.18589    -235.74575    89.18589    -235.74575    89.18589    0.00000    179.18589
1474418.68409    0.00000    179.17987    -235.42569    89.17987    -235.42569    89.17987    0.00000    179.17987
1485324.67551    -0.00000    179.17380    -235.10563    89.17380    -235.10563    89.17380    -0.00000    179.17380
1496311.33645    0.00000    179.16769    -234.78557    89.16769    -234.78557    89.16769    0.00000    179.16769
1507379.26361    -0.00000    179.16153    -234.46551    89.16153    -234.46551    89.16153    -0.00000    179.16153
1518529.05810    0.00000    179.15533    -234.14545    89.15533    -234.14545    89.15533    0.00000    179.15533
1529761.32547    0.00000    179.14908    -233.82539    89.14908    -233.82539    89.14908    0.00000    179.14908
1541076.67577    0.00000    179.14279    -233.50534    89.14279    -233.50534    89.14279    0.00000    179.14279
1552475.72354    0.00000    179.13645    -233.18528    89.13645    -233.18528    89.13645    0.00000    179.13645
1563959.08787    0.00000    179.13006    -232.86522    89.13006    -232.86522    89.13006    0.00000    179.13006
1575527.39243    -0.00000    179.12363    -232.54516    89.12363    -232.54516    89.12363    -0.00000    179.12363
1587181.26552    0.00000    179.11714    -232.22510    89.11714    -232.22510    89.11714    0.00000    179.11714
1598921.34007    0.00000    179.11061    -231.90504    89.11061    -231.90504    89.11061    0.00000    179.11061
1610748.25369    0.00000    179.10403    -231.58498    89.10403    -231.58498    89.10403    0.00000    179.10403
1622662.64872    -0.00000    179.09741    -231.26492    89.09741    -231.26492    89.09741    -0.00000    179.09741
1634665.17223    -0.00000    179.09073    -230.94486    89.09073    -230.94486    89.09073    -0.00000    179.09073
1646756.47611    0.00000    179.08400    -230.62481    89.08400    -230.62481    89.08400    0.00000    179.08400
1658937.21703    0.00000    179.07723    -230.30475    89.07723    -230.30475    89.07723    0.00000    179.07723
1671208.05655    -0.00000    179.07040    -229.98469    89.07040    -229.98469    89.07040    -0.00000    179.07040
1683569.66111    0.00000    179.06353    -229.66463    89.06353    -229.66463    89.06353    0.00000    179.06353
1696022.70208    0.00000    179.05660    -229.34457    89.05660    -229.34457    89.05660    0.00000    179.05660
1708567.85580    0.00000    179.04962    -229.02451    89.04962    -229.02451    89.04962    0.00000    179.04962
1721205.80361    0.00000    179.04259    -228.70445    89.04259    -228.70445    89.04259    0.00000    179.04259
1733937.23189    -0.00000    179.03551    -228.38439    89.03551    -228.38439    89.03551    -0.00000    179.03551
1746762.83209    0.00000    179.02838    -228.06433    89.02838    -228.06433    89.02838    0.00000    179.02838
1759683.30080    -0.00000    179.02119    -227.74427    89.02119    -227.74427    89.02119    -0.00000    179.02119
1772699.33972    -0.00000    179.01395    -227.42421    89.01395    -227.42421    89.01395    -0.00000    179.01395
1785811.65578    -0.00000    179.00665    -227.10416    89.00665    -227.10416    89.00665    -0.00000    179.00665
1799020.96112    0.00000    178.99931    -226.78410    88.99931    -226.78410    88.99931    0.00000    178.99931
1812327.97316    -0.00000    178.99190    -226.46404    88.99190    -226.46404    88.99190    -0.00000    178.99190
1825733.41460    -0.00000    178.98445    -226.14398    88.98445    -226.14398    88.98445    -0.00000    178.98445
1839238.01351    0.00000    178.97694    -225.82392    88.97694    -225.82392    88.97694    0.00000    178.97694
1852842.50334    0.00000    178.96937    -225.50386    88.96937    -225.50386    88.96937    0.00000    178.96937
1866547.62297    -0.00000    178.96175    -225.18380    88.96175    -225.18380    88.96175    -0.00000    178.96175
1880354.11673    0.00000    178.95407    -224.86374    88.95407    -224.86374    88.95407    0.00000    178.95407
1894262.73447    0.00000    178.94633    -224.54368    88.94633    -224.54368    88.94633    0.00000    178.94633
1908274.23158    0.00000    178.93853    -224.22362    88.93853    -224.22362    88.93853    0.00000    178.93853
1922389.36904    0.00000    178.93068    -223.90356    88.93068    -223.90356    88.93068    0.00000    178.93068
1936608.91346    0.00000    178.92277    -223.58350    88.92277    -223.58350    88.92277    0.00000    178.92277
1950933.63711    0.00000    178.91481    -223.26344    88.91481    -223.26344    88.91481    0.00000    178.91481
1965364.31799    0.00000    178.90678    -222.94338    88.90678    -222.94338    88.90678    0.00000    178.90678
1979901.73984    0.00000    178.89869    -222.62332    88.89869    -222.62332    88.89869    0.00000    178.89869
1994546.69220    0.00000    178.89055    -222.30326    88.89055    -222.30326    88.89055    0.00000    178.89055
2009299.97046    0.00000    178.88234    -221.98320    88.88234    -221.98320    88.88234    0.00000    178.88234
2024162.37588    -0.00000    178.87407    -221.66314    88.87407    -221.66314    88.87407    -0.00000    178.87407
2039134.71565    0.00000    178.86574    -221.34308    88.86574    -221.34308    88.86574    0.00000    178.86574
2054217.80295    -0.00000    178.85735    -221.02302    88.85735    -221.02302    88.85735    -0.00000    178.85735
2069412.45693    0.00000    178.84890    -220.70296    88.84890    -220.70296    88.84890    0.00000    178.84890
2084719.50285    -0.00000    178.84039    -220.38290    88.84039    -220.38290    88.84039    -0.00000    178.84039
2100139.77205    -0.00000    178.83181    -220.06284    88.83181    -220.06284    88.83181    -0.00000    178.83181
2115674.10201    0.00000    178.82317    -219.74278    88.82317    -219.74278    88.82317    0.00000    178.82317
2131323.33642    -0.00000    178.81446    -219.42272    88.81446    -219.42272    88.81446    -0.00000    178.81446
