! rf-tools.com
! Date: Thu Jan 30 2020 10:52:21 GMT+0000 (格林尼治标准时间)
# Hz S DB R 50.00
!Frequency        S11 dB       S11 Deg       S21 dB      S21 Deg      S12 dB      S12 Deg      S22 dB       S22 Deg      
347119048.27170    -0.00000    179.39884    -76.69373    89.39884    -76.69373    89.39884    -0.00000    179.39884
347706202.20489    -0.00000    179.39776    -76.67803    89.39776    -76.67803    89.39776    -0.00000    179.39776
348294349.31245    -0.00000    179.39666    -76.66232    89.39666    -76.66232    89.39666    -0.00000    179.39666
348883491.27433    -0.00000    179.39557    -76.64660    89.39557    -76.64660    89.39557    -0.00000    179.39557
349473629.77335    -0.00000    179.39448    -76.63088    89.39448    -76.63088    89.39448    -0.00000    179.39448
350064766.49514    -0.00000    179.39338    -76.61516    89.39338    -76.61516    89.39338    -0.00000    179.39338
350656903.12821    -0.00000    179.39228    -76.59943    89.39228    -76.59943    89.39228    -0.00000    179.39228
351250041.36392    -0.00000    179.39118    -76.58370    89.39118    -76.58370    89.39118    -0.00000    179.39118
351844182.89648    -0.00000    179.39007    -76.56797    89.39007    -76.56797    89.39007    -0.00000    179.39007
352439329.42297    -0.00000    179.38896    -76.55223    89.38896    -76.55223    89.38896    -0.00000    179.38896
353035482.64334    -0.00000    179.38785    -76.53649    89.38785    -76.53649    89.38785    -0.00000    179.38785
353632644.26044    -0.00000    179.38674    -76.52075    89.38674    -76.52075    89.38674    -0.00000    179.38674
354230815.97995    -0.00000    179.38563    -76.50500    89.38563    -76.50500    89.38563    -0.00000    179.38563
354829999.51049    -0.00000    179.38451    -76.48925    89.38451    -76.48925    89.38451    -0.00000    179.38451
355430196.56353    -0.00000    179.38340    -76.47349    89.38340    -76.47349    89.38340    -0.00000    179.38340
356031408.85345    -0.00000    179.38227    -76.45774    89.38227    -76.45774    89.38227    -0.00000    179.38227
356633638.09753    -0.00000    179.38115    -76.44197    89.38115    -76.44197    89.38115    -0.00000    179.38115
357236886.01596    -0.00000    179.38003    -76.42621    89.38003    -76.42621    89.38003    -0.00000    179.38003
357841154.33182    -0.00000    179.37890    -76.41044    89.37890    -76.41044    89.37890    -0.00000    179.37890
358446444.77114    -0.00000    179.37777    -76.39466    89.37777    -76.39466    89.37777    -0.00000    179.37777
359052759.06283    -0.00000    179.37664    -76.37888    89.37664    -76.37888    89.37664    -0.00000    179.37664
359660098.93875    -0.00000    179.37550    -76.36310    89.37550    -76.36310    89.37550    -0.00000    179.37550
360268466.13368    -0.00000    179.37437    -76.34731    89.37437    -76.34731    89.37437    -0.00000    179.37437
360877862.38533    -0.00000    179.37323    -76.33152    89.37323    -76.33152    89.37323    -0.00000    179.37323
361488289.43437    -0.00000    179.37208    -76.31573    89.37208    -76.31573    89.37208    -0.00000    179.37208
362099749.02438    -0.00000    179.37094    -76.29993    89.37094    -76.29993    89.37094    -0.00000    179.37094
362712242.90193    -0.00000    179.36979    -76.28413    89.36979    -76.28413    89.36979    -0.00000    179.36979
363325772.81651    -0.00000    179.36865    -76.26833    89.36865    -76.26833    89.36865    -0.00000    179.36865
363940340.52059    -0.00000    179.36749    -76.25252    89.36749    -76.25252    89.36749    -0.00000    179.36749
364555947.76959    -0.00000    179.36634    -76.23670    89.36634    -76.23670    89.36634    -0.00000    179.36634
365172596.32192    -0.00000    179.36519    -76.22088    89.36519    -76.22088    89.36519    -0.00000    179.36519
365790287.93893    -0.00000    179.36403    -76.20506    89.36403    -76.20506    89.36403    -0.00000    179.36403
366409024.38499    -0.00000    179.36287    -76.18924    89.36287    -76.18924    89.36287    -0.00000    179.36287
367028807.42742    -0.00000    179.36170    -76.17341    89.36170    -76.17341    89.36170    -0.00000    179.36170
367649638.83655    -0.00000    179.36054    -76.15757    89.36054    -76.15757    89.36054    -0.00000    179.36054
368271520.38570    -0.00000    179.35937    -76.14174    89.35937    -76.14174    89.35937    -0.00000    179.35937
368894453.85118    -0.00000    179.35820    -76.12590    89.35820    -76.12590    89.35820    -0.00000    179.35820
369518441.01233    -0.00000    179.35703    -76.11005    89.35703    -76.11005    89.35703    -0.00000    179.35703
370143483.65147    -0.00000    179.35585    -76.09420    89.35585    -76.09420    89.35585    -0.00000    179.35585
370769583.55394    -0.00000    179.35467    -76.07835    89.35467    -76.07835    89.35467    -0.00000    179.35467
371396742.50812    -0.00000    179.35349    -76.06249    89.35349    -76.06249    89.35349    -0.00000    179.35349
372024962.30540    -0.00000    179.35231    -76.04662    89.35231    -76.04662    89.35231    -0.00000    179.35231
372654244.74020    -0.00000    179.35113    -76.03076    89.35113    -76.03076    89.35113    -0.00000    179.35113
373284591.60998    -0.00000    179.34994    -76.01489    89.34994    -76.01489    89.34994    -0.00000    179.34994
373916004.71524    -0.00000    179.34875    -75.99901    89.34875    -75.99901    89.34875    -0.00000    179.34875
374548485.85952    -0.00000    179.34756    -75.98313    89.34756    -75.98313    89.34756    -0.00000    179.34756
375182036.84941    -0.00000    179.34636    -75.96725    89.34636    -75.96725    89.34636    -0.00000    179.34636
375816659.49456    -0.00000    179.34516    -75.95136    89.34516    -75.95136    89.34516    -0.00000    179.34516
376452355.60769    -0.00000    179.34396    -75.93547    89.34396    -75.93547    89.34396    -0.00000    179.34396
377089127.00458    -0.00000    179.34276    -75.91958    89.34276    -75.91958    89.34276    -0.00000    179.34276
377726975.50407    -0.00000    179.34155    -75.90367    89.34155    -75.90367    89.34155    -0.00000    179.34155
378365902.92808    -0.00000    179.34035    -75.88777    89.34035    -75.88777    89.34035    -0.00000    179.34035
379005911.10163    -0.00000    179.33914    -75.87186    89.33914    -75.87186    89.33914    -0.00000    179.33914
379647001.85281    -0.00000    179.33792    -75.85595    89.33792    -75.85595    89.33792    -0.00000    179.33792
380289177.01281    -0.00000    179.33671    -75.84003    89.33671    -75.84003    89.33671    -0.00000    179.33671
380932438.41590    -0.00000    179.33549    -75.82411    89.33549    -75.82411    89.33549    -0.00000    179.33549
381576787.89949    -0.00000    179.33427    -75.80818    89.33427    -75.80818    89.33427    -0.00000    179.33427
382222227.30405    -0.00000    179.33305    -75.79225    89.33305    -75.79225    89.33305    -0.00000    179.33305
382868758.47320    -0.00000    179.33182    -75.77632    89.33182    -75.77632    89.33182    -0.00000    179.33182
383516383.25367    -0.00000    179.33059    -75.76038    89.33059    -75.76038    89.33059    -0.00000    179.33059
384165103.49530    -0.00000    179.32936    -75.74443    89.32936    -75.74443    89.32936    -0.00000    179.32936
384814921.05108    -0.00000    179.32813    -75.72848    89.32813    -75.72848    89.32813    -0.00000    179.32813
385465837.77711    -0.00000    179.32689    -75.71253    89.32689    -75.71253    89.32689    -0.00000    179.32689
386117855.53266    -0.00000    179.32565    -75.69657    89.32565    -75.69657    89.32565    -0.00000    179.32565
386770976.18011    -0.00000    179.32441    -75.68061    89.32441    -75.68061    89.32441    -0.00000    179.32441
387425201.58502    -0.00000    179.32317    -75.66464    89.32317    -75.66464    89.32317    -0.00000    179.32317
388080533.61609    -0.00000    179.32192    -75.64867    89.32192    -75.64867    89.32192    -0.00000    179.32192
388736974.14519    -0.00000    179.32067    -75.63270    89.32067    -75.63270    89.32067    -0.00000    179.32067
389394525.04734    -0.00000    179.31942    -75.61672    89.31942    -75.61672    89.31942    -0.00000    179.31942
390053188.20075    -0.00000    179.31816    -75.60073    89.31816    -75.60073    89.31816    -0.00000    179.31816
390712965.48680    -0.00000    179.31691    -75.58474    89.31691    -75.58474    89.31691    -0.00000    179.31691
391373858.79005    -0.00000    179.31565    -75.56875    89.31565    -75.56875    89.31565    -0.00000    179.31565
392035869.99825    -0.00000    179.31438    -75.55275    89.31438    -75.55275    89.31438    -0.00000    179.31438
392699001.00235    -0.00000    179.31312    -75.53675    89.31312    -75.53675    89.31312    -0.00000    179.31312
393363253.69648    -0.00000    179.31185    -75.52074    89.31185    -75.52074    89.31185    -0.00000    179.31185
394028629.97799    -0.00000    179.31058    -75.50473    89.31058    -75.50473    89.31058    -0.00000    179.31058
394695131.74743    -0.00000    179.30930    -75.48871    89.30930    -75.48871    89.30930    -0.00000    179.30930
395362760.90858    -0.00000    179.30803    -75.47269    89.30803    -75.47269    89.30803    -0.00000    179.30803
396031519.36842    -0.00000    179.30675    -75.45666    89.30675    -75.45666    89.30675    -0.00000    179.30675
396701409.03717    -0.00000    179.30547    -75.44063    89.30547    -75.44063    89.30547    -0.00000    179.30547
397372431.82828    -0.00000    179.30418    -75.42459    89.30418    -75.42459    89.30418    -0.00000    179.30418
398044589.65843    -0.00000    179.30290    -75.40855    89.30290    -75.40855    89.30290    -0.00000    179.30290
398717884.44754    -0.00000    179.30160    -75.39250    89.30160    -75.39250    89.30160    -0.00000    179.30160
399392318.11879    -0.00000    179.30031    -75.37645    89.30031    -75.37645    89.30031    -0.00000    179.30031
400067892.59860    -0.00000    179.29902    -75.36040    89.29902    -75.36040    89.29902    -0.00000    179.29902
400744609.81666    -0.00000    179.29772    -75.34434    89.29772    -75.34434    89.29772    -0.00000    179.29772
401422471.70591    -0.00000    179.29642    -75.32827    89.29642    -75.32827    89.29642    -0.00000    179.29642
402101480.20259    -0.00000    179.29511    -75.31220    89.29511    -75.31220    89.29511    -0.00000    179.29511
402781637.24616    -0.00000    179.29380    -75.29613    89.29380    -75.29613    89.29380    -0.00000    179.29380
403462944.77943    -0.00000    179.29250    -75.28005    89.29250    -75.28005    89.29250    -0.00000    179.29250
404145404.74843    -0.00000    179.29118    -75.26396    89.29118    -75.26396    89.29118    -0.00000    179.29118
404829019.10252    -0.00000    179.28987    -75.24787    89.28987    -75.24787    89.28987    -0.00000    179.28987
405513789.79436    -0.00000    179.28855    -75.23177    89.28855    -75.23177    89.28855    -0.00000    179.28855
406199718.77989    -0.00000    179.28723    -75.21567    89.28723    -75.21567    89.28723    -0.00000    179.28723
406886808.01838    -0.00000    179.28590    -75.19957    89.28590    -75.19957    89.28590    -0.00000    179.28590
407575059.47240    -0.00000    179.28458    -75.18346    89.28458    -75.18346    89.28458    -0.00000    179.28458
408264475.10785    -0.00000    179.28325    -75.16734    89.28325    -75.16734    89.28325    -0.00000    179.28325
408955056.89393    -0.00000    179.28191    -75.15122    89.28191    -75.15122    89.28191    -0.00000    179.28191
409646806.80322    -0.00000    179.28058    -75.13510    89.28058    -75.13510    89.28058    -0.00000    179.28058
410339726.81159    -0.00000    179.27924    -75.11897    89.27924    -75.11897    89.27924    -0.00000    179.27924
411033818.89827    -0.00000    179.27790    -75.10283    89.27790    -75.10283    89.27790    -0.00000    179.27790
411729085.04584    -0.00000    179.27655    -75.08669    89.27655    -75.08669    89.27655    -0.00000    179.27655
412425527.24023    -0.00000    179.27521    -75.07054    89.27521    -75.07054    89.27521    -0.00000    179.27521
413123147.47073    -0.00000    179.27385    -75.05439    89.27385    -75.05439    89.27385    -0.00000    179.27385
413821947.73000    -0.00000    179.27250    -75.03823    89.27250    -75.03823    89.27250    -0.00000    179.27250
414521930.01406    -0.00000    179.27115    -75.02207    89.27115    -75.02207    89.27115    -0.00000    179.27115
415223096.32231    -0.00000    179.26979    -75.00590    89.26979    -75.00590    89.26979    -0.00000    179.26979
415925448.65754    -0.00000    179.26842    -74.98973    89.26842    -74.98973    89.26842    -0.00000    179.26842
416628989.02592    -0.00000    179.26706    -74.97355    89.26706    -74.97355    89.26706    -0.00000    179.26706
417333719.43701    -0.00000    179.26569    -74.95737    89.26569    -74.95737    89.26569    -0.00000    179.26569
418039641.90379    -0.00000    179.26432    -74.94118    89.26432    -74.94118    89.26432    -0.00000    179.26432
418746758.44261    -0.00000    179.26294    -74.92499    89.26294    -74.92499    89.26294    -0.00000    179.26294
419455071.07326    -0.00000    179.26157    -74.90879    89.26157    -74.90879    89.26157    -0.00000    179.26157
420164581.81893    -0.00000    179.26019    -74.89258    89.26019    -74.89258    89.26019    -0.00000    179.26019
420875292.70625    -0.00000    179.25880    -74.87637    89.25880    -74.87637    89.25880    -0.00000    179.25880
421587205.76526    -0.00000    179.25742    -74.86016    89.25742    -74.86016    89.25742    -0.00000    179.25742
422300323.02943    -0.00000    179.25603    -74.84394    89.25603    -74.84394    89.25603    -0.00000    179.25603
423014646.53570    -0.00000    179.25463    -74.82771    89.25463    -74.82771    89.25463    -0.00000    179.25463
423730178.32443    -0.00000    179.25324    -74.81148    89.25324    -74.81148    89.25324    -0.00000    179.25324
424446920.43942    -0.00000    179.25184    -74.79524    89.25184    -74.79524    89.25184    -0.00000    179.25184
425164874.92797    -0.00000    179.25044    -74.77900    89.25044    -74.77900    89.25044    -0.00000    179.25044
425884043.84080    -0.00000    179.24903    -74.76275    89.24903    -74.76275    89.24903    -0.00000    179.24903
426604429.23212    -0.00000    179.24763    -74.74650    89.24763    -74.74650    89.24763    -0.00000    179.24763
427326033.15961    -0.00000    179.24621    -74.73024    89.24621    -74.73024    89.24621    -0.00000    179.24621
428048857.68443    -0.00000    179.24480    -74.71397    89.24480    -74.71397    89.24480    -0.00000    179.24480
428772904.87123    -0.00000    179.24338    -74.69770    89.24338    -74.69770    89.24338    -0.00000    179.24338
429498176.78815    -0.00000    179.24196    -74.68142    89.24196    -74.68142    89.24196    -0.00000    179.24196
430224675.50683    -0.00000    179.24054    -74.66514    89.24054    -74.66514    89.24054    -0.00000    179.24054
430952403.10242    -0.00000    179.23911    -74.64885    89.23911    -74.64885    89.23911    -0.00000    179.23911
431681361.65355    -0.00000    179.23768    -74.63256    89.23768    -74.63256    89.23768    -0.00000    179.23768
432411553.24240    -0.00000    179.23625    -74.61626    89.23625    -74.61626    89.23625    -0.00000    179.23625
433142979.95467    -0.00000    179.23481    -74.59995    89.23481    -74.59995    89.23481    -0.00000    179.23481
433875643.87957    -0.00000    179.23337    -74.58364    89.23337    -74.58364    89.23337    -0.00000    179.23337
434609547.10985    -0.00000    179.23193    -74.56732    89.23193    -74.56732    89.23193    -0.00000    179.23193
435344691.74181    -0.00000    179.23048    -74.55100    89.23048    -74.55100    89.23048    -0.00000    179.23048
436081079.87528    -0.00000    179.22903    -74.53467    89.22903    -74.53467    89.22903    -0.00000    179.22903
436818713.61366    -0.00000    179.22758    -74.51834    89.22758    -74.51834    89.22758    -0.00000    179.22758
437557595.06388    -0.00000    179.22612    -74.50200    89.22612    -74.50200    89.22612    -0.00000    179.22612
438297726.33648    -0.00000    179.22466    -74.48565    89.22466    -74.48565    89.22466    -0.00000    179.22466
439039109.54552    -0.00000    179.22320    -74.46930    89.22320    -74.46930    89.22320    -0.00000    179.22320
439781746.80866    -0.00000    179.22173    -74.45294    89.22173    -74.45294    89.22173    -0.00000    179.22173
440525640.24715    -0.00000    179.22026    -74.43657    89.22026    -74.43657    89.22026    -0.00000    179.22026
441270791.98581    -0.00000    179.21879    -74.42020    89.21879    -74.42020    89.21879    -0.00000    179.21879
442017204.15307    -0.00000    179.21731    -74.40383    89.21731    -74.40383    89.21731    -0.00000    179.21731
442764878.88094    -0.00000    179.21584    -74.38744    89.21584    -74.38744    89.21584    -0.00000    179.21584
443513818.30506    -0.00000    179.21435    -74.37105    89.21435    -74.37105    89.21435    -0.00000    179.21435
444264024.56466    -0.00000    179.21287    -74.35466    89.21287    -74.35466    89.21287    -0.00000    179.21287
445015499.80261    -0.00000    179.21138    -74.33826    89.21138    -74.33826    89.21138    -0.00000    179.21138
445768246.16540    -0.00000    179.20988    -74.32185    89.20988    -74.32185    89.20988    -0.00000    179.20988
446522265.80313    -0.00000    179.20839    -74.30544    89.20839    -74.30544    89.20839    -0.00000    179.20839
447277560.86956    -0.00000    179.20689    -74.28902    89.20689    -74.28902    89.20689    -0.00000    179.20689
448034133.52208    -0.00000    179.20539    -74.27259    89.20539    -74.27259    89.20539    -0.00000    179.20539
448791985.92174    -0.00000    179.20388    -74.25616    89.20388    -74.25616    89.20388    -0.00000    179.20388
449551120.23324    -0.00000    179.20237    -74.23972    89.20237    -74.23972    89.20237    -0.00000    179.20237
450311538.62494    -0.00000    179.20086    -74.22328    89.20086    -74.22328    89.20086    -0.00000    179.20086
451073243.26886    -0.00000    179.19934    -74.20683    89.19934    -74.20683    89.19934    -0.00000    179.19934
451836236.34072    -0.00000    179.19782    -74.19037    89.19782    -74.19037    89.19782    -0.00000    179.19782
452600520.01990    -0.00000    179.19629    -74.17390    89.19629    -74.17390    89.19629    -0.00000    179.19629
453366096.48946    -0.00000    179.19477    -74.15743    89.19477    -74.15743    89.19477    -0.00000    179.19477
454132967.93617    -0.00000    179.19324    -74.14096    89.19324    -74.14096    89.19324    -0.00000    179.19324
454901136.55049    -0.00000    179.19170    -74.12448    89.19170    -74.12448    89.19170    -0.00000    179.19170
455670604.52658    -0.00000    179.19016    -74.10799    89.19016    -74.10799    89.19016    -0.00000    179.19016
456441374.06233    -0.00000    179.18862    -74.09149    89.18862    -74.09149    89.18862    -0.00000    179.18862
457213447.35933    -0.00000    179.18708    -74.07499    89.18708    -74.07499    89.18708    -0.00000    179.18708
457986826.62291    -0.00000    179.18553    -74.05848    89.18553    -74.05848    89.18553    -0.00000    179.18553
458761514.06210    -0.00000    179.18398    -74.04196    89.18398    -74.04196    89.18398    -0.00000    179.18398
459537511.88970    -0.00000    179.18242    -74.02544    89.18242    -74.02544    89.18242    -0.00000    179.18242
460314822.32223    -0.00000    179.18086    -74.00891    89.18086    -74.00891    89.18086    -0.00000    179.18086
461093447.57999    -0.00000    179.17930    -73.99238    89.17930    -73.99238    89.17930    -0.00000    179.17930
461873389.88699    -0.00000    179.17773    -73.97583    89.17773    -73.97583    89.17773    -0.00000    179.17773
