! rf-tools.com
! Date: Thu Jan 30 2020 11:09:07 GMT+0000 (格林尼治标准时间)
# Hz S DB R 50.00
!Frequency        S11 dB       S11 Deg       S21 dB      S21 Deg      S12 dB      S12 Deg      S22 dB       S22 Deg      
347119048.27170    -0.00000    179.32590    -70.67696    89.32590    -70.67696    89.32590    -0.00000    179.32590
347706202.20489    -0.00000    179.32468    -70.66128    89.32468    -70.66128    89.32468    -0.00000    179.32468
348294349.31245    -0.00000    179.32345    -70.64560    89.32345    -70.64560    89.32345    -0.00000    179.32345
348883491.27433    -0.00000    179.32223    -70.62992    89.32223    -70.62992    89.32223    -0.00000    179.32223
349473629.77335    -0.00000    179.32100    -70.61423    89.32100    -70.61423    89.32100    -0.00000    179.32100
350064766.49514    -0.00000    179.31977    -70.59854    89.31977    -70.59854    89.31977    -0.00000    179.31977
350656903.12821    -0.00000    179.31853    -70.58284    89.31853    -70.58284    89.31853    -0.00000    179.31853
351250041.36392    -0.00000    179.31730    -70.56714    89.31730    -70.56714    89.31730    -0.00000    179.31730
351844182.89648    -0.00000    179.31606    -70.55144    89.31606    -70.55144    89.31606    -0.00000    179.31606
352439329.42297    -0.00000    179.31482    -70.53573    89.31482    -70.53573    89.31482    -0.00000    179.31482
353035482.64334    -0.00000    179.31357    -70.52002    89.31357    -70.52002    89.31357    -0.00000    179.31357
353632644.26044    -0.00000    179.31233    -70.50431    89.31233    -70.50431    89.31233    -0.00000    179.31233
354230815.97995    -0.00000    179.31108    -70.48859    89.31108    -70.48859    89.31108    -0.00000    179.31108
354829999.51049    -0.00000    179.30983    -70.47287    89.30983    -70.47287    89.30983    -0.00000    179.30983
355430196.56353    -0.00000    179.30857    -70.45714    89.30857    -70.45714    89.30857    -0.00000    179.30857
356031408.85345    -0.00000    179.30732    -70.44142    89.30732    -70.44142    89.30732    -0.00000    179.30732
356633638.09753    -0.00000    179.30606    -70.42568    89.30606    -70.42568    89.30606    -0.00000    179.30606
357236886.01596    -0.00000    179.30480    -70.40995    89.30480    -70.40995    89.30480    -0.00000    179.30480
357841154.33182    -0.00000    179.30353    -70.39421    89.30353    -70.39421    89.30353    -0.00000    179.30353
358446444.77114    -0.00000    179.30227    -70.37847    89.30227    -70.37847    89.30227    -0.00000    179.30227
359052759.06283    -0.00000    179.30100    -70.36272    89.30100    -70.36272    89.30100    -0.00000    179.30100
359660098.93875    -0.00000    179.29972    -70.34697    89.29972    -70.34697    89.29972    -0.00000    179.29972
360268466.13368    -0.00000    179.29845    -70.33121    89.29845    -70.33121    89.29845    -0.00000    179.29845
360877862.38533    -0.00000    179.29717    -70.31546    89.29717    -70.31546    89.29717    -0.00000    179.29717
361488289.43437    -0.00000    179.29589    -70.29969    89.29589    -70.29969    89.29589    -0.00000    179.29589
362099749.02438    -0.00000    179.29461    -70.28393    89.29461    -70.28393    89.29461    -0.00000    179.29461
362712242.90193    -0.00000    179.29332    -70.26816    89.29332    -70.26816    89.29332    -0.00000    179.29332
363325772.81651    -0.00000    179.29203    -70.25239    89.29203    -70.25239    89.29203    -0.00000    179.29203
363940340.52059    -0.00000    179.29074    -70.23661    89.29074    -70.23661    89.29074    -0.00000    179.29074
364555947.76959    -0.00000    179.28945    -70.22083    89.28945    -70.22083    89.28945    -0.00000    179.28945
365172596.32192    -0.00000    179.28815    -70.20504    89.28815    -70.20504    89.28815    -0.00000    179.28815
365790287.93893    -0.00000    179.28686    -70.18925    89.28686    -70.18925    89.28686    -0.00000    179.28686
366409024.38499    -0.00000    179.28555    -70.17346    89.28555    -70.17346    89.28555    -0.00000    179.28555
367028807.42742    -0.00000    179.28425    -70.15767    89.28425    -70.15767    89.28425    -0.00000    179.28425
367649638.83655    -0.00000    179.28294    -70.14187    89.28294    -70.14187    89.28294    -0.00000    179.28294
368271520.38570    -0.00000    179.28163    -70.12606    89.28163    -70.12606    89.28163    -0.00000    179.28163
368894453.85118    -0.00000    179.28032    -70.11025    89.28032    -70.11025    89.28032    -0.00000    179.28032
369518441.01233    -0.00000    179.27901    -70.09444    89.27901    -70.09444    89.27901    -0.00000    179.27901
370143483.65147    -0.00000    179.27769    -70.07862    89.27769    -70.07862    89.27769    -0.00000    179.27769
370769583.55394    -0.00000    179.27637    -70.06280    89.27637    -70.06280    89.27637    -0.00000    179.27637
371396742.50812    -0.00000    179.27504    -70.04698    89.27504    -70.04698    89.27504    -0.00000    179.27504
372024962.30540    -0.00000    179.27372    -70.03115    89.27372    -70.03115    89.27372    -0.00000    179.27372
372654244.74020    -0.00000    179.27239    -70.01532    89.27239    -70.01532    89.27239    -0.00000    179.27239
373284591.60998    -0.00000    179.27106    -69.99948    89.27106    -69.99948    89.27106    -0.00000    179.27106
373916004.71524    -0.00000    179.26972    -69.98364    89.26972    -69.98364    89.26972    -0.00000    179.26972
374548485.85952    -0.00000    179.26838    -69.96780    89.26838    -69.96780    89.26838    -0.00000    179.26838
375182036.84941    -0.00000    179.26704    -69.95195    89.26704    -69.95195    89.26704    -0.00000    179.26704
375816659.49456    -0.00000    179.26570    -69.93610    89.26570    -69.93610    89.26570    -0.00000    179.26570
376452355.60769    -0.00000    179.26436    -69.92024    89.26436    -69.92024    89.26436    -0.00000    179.26436
377089127.00458    -0.00000    179.26301    -69.90438    89.26301    -69.90438    89.26301    -0.00000    179.26301
377726975.50407    -0.00000    179.26166    -69.88852    89.26166    -69.88852    89.26166    -0.00000    179.26166
378365902.92808    -0.00000    179.26030    -69.87265    89.26030    -69.87265    89.26030    -0.00000    179.26030
379005911.10163    -0.00000    179.25894    -69.85677    89.25894    -69.85677    89.25894    -0.00000    179.25894
379647001.85281    -0.00000    179.25758    -69.84090    89.25758    -69.84090    89.25758    -0.00000    179.25758
380289177.01281    -0.00000    179.25622    -69.82502    89.25622    -69.82502    89.25622    -0.00000    179.25622
380932438.41590    -0.00000    179.25485    -69.80913    89.25485    -69.80913    89.25485    -0.00000    179.25485
381576787.89949    -0.00000    179.25349    -69.79324    89.25349    -69.79324    89.25349    -0.00000    179.25349
382222227.30405    -0.00000    179.25211    -69.77735    89.25211    -69.77735    89.25211    -0.00000    179.25211
382868758.47320    -0.00000    179.25074    -69.76145    89.25074    -69.76145    89.25074    -0.00000    179.25074
383516383.25367    -0.00000    179.24936    -69.74554    89.24936    -69.74554    89.24936    -0.00000    179.24936
384165103.49530    -0.00000    179.24798    -69.72964    89.24798    -69.72964    89.24798    -0.00000    179.24798
384814921.05108    -0.00000    179.24660    -69.71372    89.24660    -69.71372    89.24660    -0.00000    179.24660
385465837.77711    -0.00000    179.24521    -69.69781    89.24521    -69.69781    89.24521    -0.00000    179.24521
386117855.53266    -0.00000    179.24382    -69.68189    89.24382    -69.68189    89.24382    -0.00000    179.24382
386770976.18011    -0.00000    179.24243    -69.66596    89.24243    -69.66596    89.24243    -0.00000    179.24243
387425201.58502    -0.00000    179.24104    -69.65004    89.24104    -69.65004    89.24104    -0.00000    179.24104
388080533.61609    -0.00000    179.23964    -69.63410    89.23964    -69.63410    89.23964    -0.00000    179.23964
388736974.14519    -0.00000    179.23824    -69.61816    89.23824    -69.61816    89.23824    -0.00000    179.23824
389394525.04734    -0.00000    179.23683    -69.60222    89.23683    -69.60222    89.23683    -0.00000    179.23683
390053188.20075    -0.00000    179.23543    -69.58628    89.23543    -69.58628    89.23543    -0.00000    179.23543
390712965.48680    -0.00000    179.23402    -69.57032    89.23402    -69.57032    89.23402    -0.00000    179.23402
391373858.79005    -0.00000    179.23260    -69.55437    89.23260    -69.55437    89.23260    -0.00000    179.23260
392035869.99825    -0.00000    179.23119    -69.53841    89.23119    -69.53841    89.23119    -0.00000    179.23119
392699001.00235    -0.00000    179.22977    -69.52244    89.22977    -69.52244    89.22977    -0.00000    179.22977
393363253.69648    -0.00000    179.22835    -69.50648    89.22835    -69.50648    89.22835    -0.00000    179.22835
394028629.97799    -0.00000    179.22692    -69.49050    89.22692    -69.49050    89.22692    -0.00000    179.22692
394695131.74743    -0.00000    179.22549    -69.47452    89.22549    -69.47452    89.22549    -0.00000    179.22549
395362760.90858    -0.00000    179.22406    -69.45854    89.22406    -69.45854    89.22406    -0.00000    179.22406
396031519.36842    -0.00000    179.22263    -69.44255    89.22263    -69.44255    89.22263    -0.00000    179.22263
396701409.03717    -0.00000    179.22119    -69.42656    89.22119    -69.42656    89.22119    -0.00000    179.22119
397372431.82828    -0.00000    179.21975    -69.41057    89.21975    -69.41057    89.21975    -0.00000    179.21975
398044589.65843    -0.00000    179.21830    -69.39456    89.21830    -69.39456    89.21830    -0.00000    179.21830
398717884.44754    -0.00000    179.21686    -69.37856    89.21686    -69.37856    89.21686    -0.00000    179.21686
399392318.11879    -0.00000    179.21541    -69.36255    89.21541    -69.36255    89.21541    -0.00000    179.21541
400067892.59860    -0.00000    179.21395    -69.34653    89.21395    -69.34653    89.21395    -0.00000    179.21395
400744609.81666    -0.00000    179.21250    -69.33051    89.21250    -69.33051    89.21250    -0.00000    179.21250
401422471.70591    -0.00000    179.21104    -69.31449    89.21104    -69.31449    89.21104    -0.00000    179.21104
402101480.20259    -0.00000    179.20958    -69.29846    89.20958    -69.29846    89.20958    -0.00000    179.20958
402781637.24616    -0.00000    179.20811    -69.28242    89.20811    -69.28242    89.20811    -0.00000    179.20811
403462944.77943    -0.00000    179.20664    -69.26639    89.20664    -69.26639    89.20664    -0.00000    179.20664
404145404.74843    -0.00000    179.20517    -69.25034    89.20517    -69.25034    89.20517    -0.00000    179.20517
404829019.10252    -0.00000    179.20370    -69.23429    89.20370    -69.23429    89.20370    -0.00000    179.20370
405513789.79436    -0.00000    179.20222    -69.21824    89.20222    -69.21824    89.20222    -0.00000    179.20222
406199718.77989    -0.00000    179.20074    -69.20218    89.20074    -69.20218    89.20074    -0.00000    179.20074
406886808.01838    -0.00000    179.19925    -69.18612    89.19925    -69.18612    89.19925    -0.00000    179.19925
407575059.47240    -0.00000    179.19776    -69.17005    89.19776    -69.17005    89.19776    -0.00000    179.19776
408264475.10785    -0.00000    179.19627    -69.15398    89.19627    -69.15398    89.19627    -0.00000    179.19627
408955056.89393    -0.00000    179.19478    -69.13790    89.19478    -69.13790    89.19478    -0.00000    179.19478
409646806.80322    -0.00000    179.19328    -69.12182    89.19328    -69.12182    89.19328    -0.00000    179.19328
410339726.81159    -0.00000    179.19178    -69.10573    89.19178    -69.10573    89.19178    -0.00000    179.19178
411033818.89827    -0.00000    179.19027    -69.08964    89.19027    -69.08964    89.19027    -0.00000    179.19027
411729085.04584    -0.00000    179.18877    -69.07354    89.18877    -69.07354    89.18877    -0.00000    179.18877
412425527.24023    -0.00000    179.18725    -69.05744    89.18725    -69.05744    89.18725    -0.00000    179.18725
413123147.47073    -0.00000    179.18574    -69.04133    89.18574    -69.04133    89.18574    -0.00000    179.18574
413821947.73000    -0.00000    179.18422    -69.02522    89.18422    -69.02522    89.18422    -0.00000    179.18422
414521930.01406    -0.00000    179.18270    -69.00910    89.18270    -69.00910    89.18270    -0.00000    179.18270
415223096.32231    -0.00000    179.18118    -68.99298    89.18118    -68.99298    89.18118    -0.00000    179.18118
415925448.65754    -0.00000    179.17965    -68.97685    89.17965    -68.97685    89.17965    -0.00000    179.17965
416628989.02592    -0.00000    179.17812    -68.96071    89.17812    -68.96071    89.17812    -0.00000    179.17812
417333719.43701    -0.00000    179.17658    -68.94458    89.17658    -68.94458    89.17658    -0.00000    179.17658
418039641.90379    -0.00000    179.17505    -68.92843    89.17505    -68.92843    89.17505    -0.00000    179.17505
418746758.44261    -0.00000    179.17351    -68.91228    89.17351    -68.91228    89.17351    -0.00000    179.17351
419455071.07326    -0.00000    179.17196    -68.89613    89.17196    -68.89613    89.17196    -0.00000    179.17196
420164581.81893    -0.00000    179.17041    -68.87997    89.17041    -68.87997    89.17041    -0.00000    179.17041
420875292.70625    -0.00000    179.16886    -68.86381    89.16886    -68.86381    89.16886    -0.00000    179.16886
421587205.76526    -0.00000    179.16731    -68.84764    89.16731    -68.84764    89.16731    -0.00000    179.16731
422300323.02943    -0.00000    179.16575    -68.83146    89.16575    -68.83146    89.16575    -0.00000    179.16575
423014646.53570    -0.00000    179.16419    -68.81528    89.16419    -68.81528    89.16419    -0.00000    179.16419
423730178.32443    -0.00000    179.16262    -68.79910    89.16262    -68.79910    89.16262    -0.00000    179.16262
424446920.43942    -0.00000    179.16105    -68.78291    89.16105    -68.78291    89.16105    -0.00000    179.16105
425164874.92797    -0.00000    179.15948    -68.76671    89.15948    -68.76671    89.15948    -0.00000    179.15948
425884043.84080    -0.00000    179.15791    -68.75051    89.15791    -68.75051    89.15791    -0.00000    179.15791
426604429.23212    -0.00000    179.15633    -68.73430    89.15633    -68.73430    89.15633    -0.00000    179.15633
427326033.15961    -0.00000    179.15474    -68.71809    89.15474    -68.71809    89.15474    -0.00000    179.15474
428048857.68443    -0.00000    179.15316    -68.70187    89.15316    -68.70187    89.15316    -0.00000    179.15316
428772904.87123    -0.00000    179.15157    -68.68565    89.15157    -68.68565    89.15157    -0.00000    179.15157
429498176.78815    -0.00000    179.14998    -68.66942    89.14998    -68.66942    89.14998    -0.00000    179.14998
430224675.50683    -0.00000    179.14838    -68.65318    89.14838    -68.65318    89.14838    -0.00000    179.14838
430952403.10242    -0.00000    179.14678    -68.63694    89.14678    -68.63694    89.14678    -0.00000    179.14678
431681361.65355    -0.00000    179.14517    -68.62070    89.14517    -68.62070    89.14517    -0.00000    179.14517
432411553.24240    -0.00000    179.14357    -68.60445    89.14357    -68.60445    89.14357    -0.00000    179.14357
433142979.95467    -0.00000    179.14196    -68.58819    89.14196    -68.58819    89.14196    -0.00000    179.14196
433875643.87957    -0.00000    179.14034    -68.57193    89.14034    -68.57193    89.14034    -0.00000    179.14034
434609547.10985    -0.00000    179.13872    -68.55566    89.13872    -68.55566    89.13872    -0.00000    179.13872
435344691.74181    -0.00000    179.13710    -68.53939    89.13710    -68.53939    89.13710    -0.00000    179.13710
436081079.87528    -0.00000    179.13548    -68.52311    89.13548    -68.52311    89.13548    -0.00000    179.13548
436818713.61366    -0.00000    179.13385    -68.50683    89.13385    -68.50683    89.13385    -0.00000    179.13385
437557595.06388    -0.00000    179.13221    -68.49054    89.13221    -68.49054    89.13221    -0.00000    179.13221
438297726.33648    -0.00000    179.13058    -68.47424    89.13058    -68.47424    89.13058    -0.00000    179.13058
439039109.54552    -0.00000    179.12894    -68.45794    89.12894    -68.45794    89.12894    -0.00000    179.12894
439781746.80866    -0.00000    179.12729    -68.44163    89.12729    -68.44163    89.12729    -0.00000    179.12729
440525640.24715    -0.00000    179.12564    -68.42532    89.12564    -68.42532    89.12564    -0.00000    179.12564
441270791.98581    -0.00000    179.12399    -68.40900    89.12399    -68.40900    89.12399    -0.00000    179.12399
442017204.15307    -0.00000    179.12234    -68.39267    89.12234    -68.39267    89.12234    -0.00000    179.12234
442764878.88094    -0.00000    179.12068    -68.37634    89.12068    -68.37634    89.12068    -0.00000    179.12068
443513818.30506    -0.00000    179.11902    -68.36000    89.11902    -68.36000    89.11902    -0.00000    179.11902
444264024.56466    -0.00000    179.11735    -68.34366    89.11735    -68.34366    89.11735    -0.00000    179.11735
445015499.80261    -0.00000    179.11568    -68.32731    89.11568    -68.32731    89.11568    -0.00000    179.11568
445768246.16540    -0.00000    179.11401    -68.31096    89.11401    -68.31096    89.11401    -0.00000    179.11401
446522265.80313    -0.00000    179.11233    -68.29460    89.11233    -68.29460    89.11233    -0.00000    179.11233
447277560.86956    -0.00000    179.11065    -68.27823    89.11065    -68.27823    89.11065    -0.00000    179.11065
448034133.52208    -0.00000    179.10896    -68.26186    89.10896    -68.26186    89.10896    -0.00000    179.10896
448791985.92174    -0.00000    179.10727    -68.24548    89.10727    -68.24548    89.10727    -0.00000    179.10727
449551120.23324    -0.00000    179.10558    -68.22910    89.10558    -68.22910    89.10558    -0.00000    179.10558
450311538.62494    -0.00000    179.10388    -68.21271    89.10388    -68.21271    89.10388    -0.00000    179.10388
451073243.26886    -0.00000    179.10218    -68.19631    89.10218    -68.19631    89.10218    -0.00000    179.10218
451836236.34072    -0.00000    179.10047    -68.17991    89.10047    -68.17991    89.10047    -0.00000    179.10047
452600520.01990    -0.00000    179.09877    -68.16350    89.09877    -68.16350    89.09877    -0.00000    179.09877
453366096.48946    -0.00000    179.09705    -68.14708    89.09705    -68.14708    89.09705    -0.00000    179.09705
454132967.93617    -0.00000    179.09534    -68.13066    89.09534    -68.13066    89.09534    -0.00000    179.09534
454901136.55049    -0.00000    179.09362    -68.11423    89.09362    -68.11423    89.09362    -0.00000    179.09362
455670604.52658    -0.00000    179.09189    -68.09780    89.09189    -68.09780    89.09189    -0.00000    179.09189
456441374.06233    -0.00000    179.09016    -68.08136    89.09016    -68.08136    89.09016    -0.00000    179.09016
457213447.35933    -0.00000    179.08843    -68.06491    89.08843    -68.06491    89.08843    -0.00000    179.08843
457986826.62291    -0.00000    179.08669    -68.04846    89.08669    -68.04846    89.08669    -0.00000    179.08669
458761514.06210    -0.00000    179.08495    -68.03200    89.08495    -68.03200    89.08495    -0.00000    179.08495
459537511.88970    -0.00000    179.08321    -68.01554    89.08321    -68.01554    89.08321    -0.00000    179.08321
460314822.32223    -0.00000    179.08146    -67.99906    89.08146    -67.99906    89.08146    -0.00000    179.08146
461093447.57999    -0.00000    179.07971    -67.98259    89.07971    -67.98259    89.07971    -0.00000    179.07971
461873389.88699    -0.00000    179.07795    -67.96610    89.07795    -67.96610    89.07795    -0.00000    179.07795
