! rf-tools.com
! Date: Thu Jan 30 2020 11:06:29 GMT+0000 (格林尼治标准时间)
# Hz S DB R 50.00
!Frequency        S11 dB       S11 Deg       S21 dB      S21 Deg      S12 dB      S12 Deg      S22 dB       S22 Deg      
347119048.27170    0.00000    179.24786    -176.14362    -0.75214    -176.14362    -0.75214    0.00000    -0.75214
347706202.20489    -0.00000    179.24650    -176.08075    -0.75350    -176.08075    -0.75350    -0.00000    -0.75350
348294349.31245    0.00000    179.24514    -176.01786    -0.75486    -176.01786    -0.75486    0.00000    -0.75486
348883491.27433    -0.00000    179.24377    -175.95496    -0.75623    -175.95496    -0.75623    0.00000    -0.75623
349473629.77335    0.00000    179.24240    -175.89204    -0.75760    -175.89204    -0.75760    -0.00000    -0.75760
350064766.49514    0.00000    179.24102    -175.82911    -0.75898    -175.82911    -0.75898    -0.00000    -0.75898
350656903.12821    -0.00000    179.23965    -175.76616    -0.76035    -175.76616    -0.76035    0.00000    -0.76035
351250041.36392    -0.00000    179.23827    -175.70320    -0.76173    -175.70320    -0.76173    0.00000    -0.76173
351844182.89648    -0.00000    179.23689    -175.64023    -0.76311    -175.64023    -0.76311    -0.00000    -0.76311
352439329.42297    -0.00000    179.23550    -175.57723    -0.76450    -175.57723    -0.76450    0.00000    -0.76450
353035482.64334    -0.00000    179.23411    -175.51423    -0.76589    -175.51423    -0.76589    -0.00000    -0.76589
353632644.26044    -0.00000    179.23272    -175.45121    -0.76728    -175.45121    -0.76728    0.00000    -0.76728
354230815.97995    0.00000    179.23133    -175.38817    -0.76867    -175.38817    -0.76867    -0.00000    -0.76867
354829999.51049    0.00000    179.22993    -175.32512    -0.77007    -175.32512    -0.77007    -0.00000    -0.77007
355430196.56353    0.00000    179.22853    -175.26205    -0.77147    -175.26205    -0.77147    0.00000    -0.77147
356031408.85345    -0.00000    179.22713    -175.19897    -0.77287    -175.19897    -0.77287    0.00000    -0.77287
356633638.09753    -0.00000    179.22573    -175.13587    -0.77427    -175.13587    -0.77427    -0.00000    -0.77427
357236886.01596    0.00000    179.22432    -175.07276    -0.77568    -175.07276    -0.77568    0.00000    -0.77568
357841154.33182    0.00000    179.22291    -175.00963    -0.77709    -175.00963    -0.77709    0.00000    -0.77709
358446444.77114    0.00000    179.22150    -174.94649    -0.77850    -174.94649    -0.77850    0.00000    -0.77850
359052759.06283    0.00000    179.22008    -174.88333    -0.77992    -174.88333    -0.77992    0.00000    -0.77992
359660098.93875    0.00000    179.21866    -174.82015    -0.78134    -174.82015    -0.78134    0.00000    -0.78134
360268466.13368    0.00000    179.21724    -174.75696    -0.78276    -174.75696    -0.78276    0.00000    -0.78276
360877862.38533    -0.00000    179.21581    -174.69375    -0.78419    -174.69375    -0.78419    0.00000    -0.78419
361488289.43437    0.00000    179.21438    -174.63053    -0.78562    -174.63053    -0.78562    0.00000    -0.78562
362099749.02438    -0.00000    179.21295    -174.56729    -0.78705    -174.56729    -0.78705    0.00000    -0.78705
362712242.90193    0.00000    179.21152    -174.50404    -0.78848    -174.50404    -0.78848    0.00000    -0.78848
363325772.81651    0.00000    179.21008    -174.44077    -0.78992    -174.44077    -0.78992    0.00000    -0.78992
363940340.52059    0.00000    179.20864    -174.37748    -0.79136    -174.37748    -0.79136    0.00000    -0.79136
364555947.76959    -0.00000    179.20720    -174.31418    -0.79280    -174.31418    -0.79280    0.00000    -0.79280
365172596.32192    0.00000    179.20575    -174.25086    -0.79425    -174.25086    -0.79425    0.00000    -0.79425
365790287.93893    0.00000    179.20430    -174.18753    -0.79570    -174.18753    -0.79570    0.00000    -0.79570
366409024.38499    0.00000    179.20285    -174.12418    -0.79715    -174.12418    -0.79715    -0.00000    -0.79715
367028807.42742    0.00000    179.20139    -174.06081    -0.79861    -174.06081    -0.79861    0.00000    -0.79861
367649638.83655    0.00000    179.19994    -173.99743    -0.80006    -173.99743    -0.80006    0.00000    -0.80006
368271520.38570    0.00000    179.19847    -173.93403    -0.80153    -173.93403    -0.80153    0.00000    -0.80153
368894453.85118    0.00000    179.19701    -173.87061    -0.80299    -173.87061    -0.80299    -0.00000    -0.80299
369518441.01233    -0.00000    179.19554    -173.80718    -0.80446    -173.80718    -0.80446    0.00000    -0.80446
370143483.65147    0.00000    179.19407    -173.74373    -0.80593    -173.74373    -0.80593    0.00000    -0.80593
370769583.55394    0.00000    179.19260    -173.68026    -0.80740    -173.68026    -0.80740    0.00000    -0.80740
371396742.50812    0.00000    179.19112    -173.61678    -0.80888    -173.61678    -0.80888    0.00000    -0.80888
372024962.30540    0.00000    179.18964    -173.55328    -0.81036    -173.55328    -0.81036    0.00000    -0.81036
372654244.74020    0.00000    179.18816    -173.48977    -0.81184    -173.48977    -0.81184    -0.00000    -0.81184
373284591.60998    0.00000    179.18667    -173.42623    -0.81333    -173.42623    -0.81333    -0.00000    -0.81333
373916004.71524    0.00000    179.18518    -173.36268    -0.81482    -173.36268    -0.81482    0.00000    -0.81482
374548485.85952    -0.00000    179.18369    -173.29912    -0.81631    -173.29912    -0.81631    -0.00000    -0.81631
375182036.84941    0.00000    179.18220    -173.23553    -0.81780    -173.23553    -0.81780    -0.00000    -0.81780
375816659.49456    0.00000    179.18070    -173.17193    -0.81930    -173.17193    -0.81930    -0.00000    -0.81930
376452355.60769    -0.00000    179.17920    -173.10831    -0.82080    -173.10831    -0.82080    -0.00000    -0.82080
377089127.00458    0.00000    179.17769    -173.04467    -0.82231    -173.04467    -0.82231    0.00000    -0.82231
377726975.50407    -0.00000    179.17618    -172.98102    -0.82382    -172.98102    -0.82382    0.00000    -0.82382
378365902.92808    0.00000    179.17467    -172.91735    -0.82533    -172.91735    -0.82533    -0.00000    -0.82533
379005911.10163    -0.00000    179.17316    -172.85366    -0.82684    -172.85366    -0.82684    0.00000    -0.82684
379647001.85281    0.00000    179.17164    -172.78996    -0.82836    -172.78996    -0.82836    -0.00000    -0.82836
380289177.01281    0.00000    179.17012    -172.72623    -0.82988    -172.72623    -0.82988    -0.00000    -0.82988
380932438.41590    0.00000    179.16860    -172.66249    -0.83140    -172.66249    -0.83140    -0.00000    -0.83140
381576787.89949    -0.00000    179.16707    -172.59873    -0.83293    -172.59873    -0.83293    0.00000    -0.83293
382222227.30405    -0.00000    179.16554    -172.53496    -0.83446    -172.53496    -0.83446    0.00000    -0.83446
382868758.47320    0.00000    179.16401    -172.47116    -0.83599    -172.47116    -0.83599    -0.00000    -0.83599
383516383.25367    0.00000    179.16247    -172.40735    -0.83753    -172.40735    -0.83753    0.00000    -0.83753
384165103.49530    0.00000    179.16093    -172.34352    -0.83907    -172.34352    -0.83907    0.00000    -0.83907
384814921.05108    -0.00000    179.15939    -172.27967    -0.84061    -172.27967    -0.84061    0.00000    -0.84061
385465837.77711    -0.00000    179.15784    -172.21581    -0.84216    -172.21581    -0.84216    0.00000    -0.84216
386117855.53266    0.00000    179.15629    -172.15192    -0.84371    -172.15192    -0.84371    0.00000    -0.84371
386770976.18011    -0.00000    179.15474    -172.08802    -0.84526    -172.08802    -0.84526    0.00000    -0.84526
387425201.58502    0.00000    179.15318    -172.02410    -0.84682    -172.02410    -0.84682    0.00000    -0.84682
388080533.61609    -0.00000    179.15162    -171.96016    -0.84838    -171.96016    -0.84838    0.00000    -0.84838
388736974.14519    0.00000    179.15006    -171.89620    -0.84994    -171.89620    -0.84994    0.00000    -0.84994
389394525.04734    0.00000    179.14849    -171.83222    -0.85151    -171.83222    -0.85151    -0.00000    -0.85151
390053188.20075    0.00000    179.14692    -171.76823    -0.85308    -171.76823    -0.85308    0.00000    -0.85308
390712965.48680    0.00000    179.14535    -171.70421    -0.85465    -171.70421    -0.85465    0.00000    -0.85465
391373858.79005    0.00000    179.14377    -171.64018    -0.85623    -171.64018    -0.85623    0.00000    -0.85623
392035869.99825    0.00000    179.14219    -171.57613    -0.85781    -171.57613    -0.85781    0.00000    -0.85781
392699001.00235    -0.00000    179.14061    -171.51206    -0.85939    -171.51206    -0.85939    -0.00000    -0.85939
393363253.69648    0.00000    179.13902    -171.44797    -0.86098    -171.44797    -0.86098    -0.00000    -0.86098
394028629.97799    -0.00000    179.13743    -171.38386    -0.86257    -171.38386    -0.86257    -0.00000    -0.86257
394695131.74743    0.00000    179.13584    -171.31973    -0.86416    -171.31973    -0.86416    0.00000    -0.86416
395362760.90858    -0.00000    179.13424    -171.25559    -0.86576    -171.25559    -0.86576    -0.00000    -0.86576
396031519.36842    0.00000    179.13264    -171.19142    -0.86736    -171.19142    -0.86736    0.00000    -0.86736
396701409.03717    -0.00000    179.13103    -171.12724    -0.86897    -171.12724    -0.86897    0.00000    -0.86897
397372431.82828    0.00000    179.12943    -171.06303    -0.87057    -171.06303    -0.87057    -0.00000    -0.87057
398044589.65843    -0.00000    179.12782    -170.99881    -0.87218    -170.99881    -0.87218    0.00000    -0.87218
398717884.44754    -0.00000    179.12620    -170.93456    -0.87380    -170.93456    -0.87380    -0.00000    -0.87380
399392318.11879    -0.00000    179.12458    -170.87030    -0.87542    -170.87030    -0.87542    -0.00000    -0.87542
400067892.59860    -0.00000    179.12296    -170.80602    -0.87704    -170.80602    -0.87704    0.00000    -0.87704
400744609.81666    -0.00000    179.12134    -170.74172    -0.87866    -170.74172    -0.87866    0.00000    -0.87866
401422471.70591    0.00000    179.11971    -170.67739    -0.88029    -170.67739    -0.88029    0.00000    -0.88029
402101480.20259    -0.00000    179.11808    -170.61305    -0.88192    -170.61305    -0.88192    -0.00000    -0.88192
402781637.24616    -0.00000    179.11644    -170.54869    -0.88356    -170.54869    -0.88356    0.00000    -0.88356
403462944.77943    0.00000    179.11480    -170.48431    -0.88520    -170.48431    -0.88520    -0.00000    -0.88520
404145404.74843    -0.00000    179.11316    -170.41990    -0.88684    -170.41990    -0.88684    0.00000    -0.88684
404829019.10252    0.00000    179.11152    -170.35548    -0.88848    -170.35548    -0.88848    0.00000    -0.88848
405513789.79436    -0.00000    179.10987    -170.29104    -0.89013    -170.29104    -0.89013    -0.00000    -0.89013
406199718.77989    -0.00000    179.10821    -170.22658    -0.89179    -170.22658    -0.89179    -0.00000    -0.89179
406886808.01838    0.00000    179.10656    -170.16209    -0.89344    -170.16209    -0.89344    0.00000    -0.89344
407575059.47240    -0.00000    179.10490    -170.09759    -0.89510    -170.09759    -0.89510    0.00000    -0.89510
408264475.10785    -0.00000    179.10323    -170.03307    -0.89677    -170.03307    -0.89677    -0.00000    -0.89677
408955056.89393    0.00000    179.10156    -169.96852    -0.89844    -169.96852    -0.89844    0.00000    -0.89844
409646806.80322    0.00000    179.09989    -169.90395    -0.90011    -169.90395    -0.90011    0.00000    -0.90011
410339726.81159    0.00000    179.09822    -169.83937    -0.90178    -169.83937    -0.90178    0.00000    -0.90178
411033818.89827    -0.00000    179.09654    -169.77476    -0.90346    -169.77476    -0.90346    -0.00000    -0.90346
411729085.04584    0.00000    179.09486    -169.71013    -0.90514    -169.71013    -0.90514    0.00000    -0.90514
412425527.24023    -0.00000    179.09317    -169.64548    -0.90683    -169.64548    -0.90683    0.00000    -0.90683
413123147.47073    -0.00000    179.09148    -169.58081    -0.90852    -169.58081    -0.90852    0.00000    -0.90852
413821947.73000    -0.00000    179.08979    -169.51612    -0.91021    -169.51612    -0.91021    0.00000    -0.91021
414521930.01406    0.00000    179.08809    -169.45141    -0.91191    -169.45141    -0.91191    -0.00000    -0.91191
415223096.32231    -0.00000    179.08639    -169.38667    -0.91361    -169.38667    -0.91361    0.00000    -0.91361
415925448.65754    -0.00000    179.08469    -169.32192    -0.91531    -169.32192    -0.91531    0.00000    -0.91531
416628989.02592    -0.00000    179.08298    -169.25714    -0.91702    -169.25714    -0.91702    0.00000    -0.91702
417333719.43701    0.00000    179.08127    -169.19234    -0.91873    -169.19234    -0.91873    0.00000    -0.91873
418039641.90379    0.00000    179.07955    -169.12752    -0.92045    -169.12752    -0.92045    0.00000    -0.92045
418746758.44261    -0.00000    179.07783    -169.06268    -0.92217    -169.06268    -0.92217    -0.00000    -0.92217
419455071.07326    -0.00000    179.07611    -168.99782    -0.92389    -168.99782    -0.92389    0.00000    -0.92389
420164581.81893    0.00000    179.07438    -168.93293    -0.92562    -168.93293    -0.92562    -0.00000    -0.92562
420875292.70625    0.00000    179.07265    -168.86802    -0.92735    -168.86802    -0.92735    -0.00000    -0.92735
421587205.76526    -0.00000    179.07092    -168.80309    -0.92908    -168.80309    -0.92908    0.00000    -0.92908
422300323.02943    0.00000    179.06918    -168.73814    -0.93082    -168.73814    -0.93082    -0.00000    -0.93082
423014646.53570    -0.00000    179.06744    -168.67317    -0.93256    -168.67317    -0.93256    0.00000    -0.93256
423730178.32443    0.00000    179.06569    -168.60817    -0.93431    -168.60817    -0.93431    0.00000    -0.93431
424446920.43942    0.00000    179.06394    -168.54315    -0.93606    -168.54315    -0.93606    0.00000    -0.93606
425164874.92797    0.00000    179.06219    -168.47811    -0.93781    -168.47811    -0.93781    0.00000    -0.93781
425884043.84080    0.00000    179.06043    -168.41305    -0.93957    -168.41305    -0.93957    0.00000    -0.93957
426604429.23212    -0.00000    179.05867    -168.34796    -0.94133    -168.34796    -0.94133    0.00000    -0.94133
427326033.15961    0.00000    179.05690    -168.28285    -0.94310    -168.28285    -0.94310    -0.00000    -0.94310
428048857.68443    0.00000    179.05513    -168.21772    -0.94487    -168.21772    -0.94487    0.00000    -0.94487
428772904.87123    0.00000    179.05336    -168.15256    -0.94664    -168.15256    -0.94664    -0.00000    -0.94664
429498176.78815    -0.00000    179.05158    -168.08738    -0.94842    -168.08738    -0.94842    0.00000    -0.94842
430224675.50683    0.00000    179.04980    -168.02218    -0.95020    -168.02218    -0.95020    -0.00000    -0.95020
430952403.10242    0.00000    179.04801    -167.95696    -0.95199    -167.95696    -0.95199    0.00000    -0.95199
431681361.65355    -0.00000    179.04622    -167.89171    -0.95378    -167.89171    -0.95378    -0.00000    -0.95378
432411553.24240    0.00000    179.04443    -167.82644    -0.95557    -167.82644    -0.95557    0.00000    -0.95557
433142979.95467    -0.00000    179.04263    -167.76115    -0.95737    -167.76115    -0.95737    0.00000    -0.95737
433875643.87957    -0.00000    179.04083    -167.69583    -0.95917    -167.69583    -0.95917    -0.00000    -0.95917
434609547.10985    0.00000    179.03902    -167.63049    -0.96098    -167.63049    -0.96098    -0.00000    -0.96098
435344691.74181    0.00000    179.03721    -167.56512    -0.96279    -167.56512    -0.96279    0.00000    -0.96279
436081079.87528    0.00000    179.03540    -167.49973    -0.96460    -167.49973    -0.96460    0.00000    -0.96460
436818713.61366    -0.00000    179.03358    -167.43432    -0.96642    -167.43432    -0.96642    0.00000    -0.96642
437557595.06388    -0.00000    179.03176    -167.36888    -0.96824    -167.36888    -0.96824    -0.00000    -0.96824
438297726.33648    0.00000    179.02993    -167.30342    -0.97007    -167.30342    -0.97007    0.00000    -0.97007
439039109.54552    0.00000    179.02810    -167.23794    -0.97190    -167.23794    -0.97190    -0.00000    -0.97190
439781746.80866    -0.00000    179.02627    -167.17243    -0.97373    -167.17243    -0.97373    0.00000    -0.97373
440525640.24715    0.00000    179.02443    -167.10690    -0.97557    -167.10690    -0.97557    0.00000    -0.97557
441270791.98581    0.00000    179.02259    -167.04134    -0.97741    -167.04134    -0.97741    -0.00000    -0.97741
442017204.15307    -0.00000    179.02074    -166.97576    -0.97926    -166.97576    -0.97926    -0.00000    -0.97926
442764878.88094    -0.00000    179.01889    -166.91015    -0.98111    -166.91015    -0.98111    -0.00000    -0.98111
443513818.30506    0.00000    179.01704    -166.84452    -0.98296    -166.84452    -0.98296    0.00000    -0.98296
444264024.56466    0.00000    179.01518    -166.77886    -0.98482    -166.77886    -0.98482    0.00000    -0.98482
445015499.80261    -0.00000    179.01331    -166.71318    -0.98669    -166.71318    -0.98669    -0.00000    -0.98669
445768246.16540    0.00000    179.01145    -166.64747    -0.98855    -166.64747    -0.98855    0.00000    -0.98855
446522265.80313    -0.00000    179.00957    -166.58174    -0.99043    -166.58174    -0.99043    0.00000    -0.99043
447277560.86956    -0.00000    179.00770    -166.51599    -0.99230    -166.51599    -0.99230    0.00000    -0.99230
448034133.52208    0.00000    179.00582    -166.45020    -0.99418    -166.45020    -0.99418    -0.00000    -0.99418
448791985.92174    0.00000    179.00393    -166.38440    -0.99607    -166.38440    -0.99607    0.00000    -0.99607
449551120.23324    -0.00000    179.00204    -166.31856    -0.99796    -166.31856    -0.99796    -0.00000    -0.99796
450311538.62494    -0.00000    179.00015    -166.25271    -0.99985    -166.25271    -0.99985    0.00000    -0.99985
451073243.26886    -0.00000    178.99825    -166.18682    -1.00175    -166.18682    -1.00175    -0.00000    -1.00175
451836236.34072    0.00000    178.99635    -166.12091    -1.00365    -166.12091    -1.00365    -0.00000    -1.00365
452600520.01990    -0.00000    178.99444    -166.05498    -1.00556    -166.05498    -1.00556    0.00000    -1.00556
453366096.48946    0.00000    178.99253    -165.98902    -1.00747    -165.98902    -1.00747    -0.00000    -1.00747
454132967.93617    0.00000    178.99062    -165.92303    -1.00938    -165.92303    -1.00938    -0.00000    -1.00938
454901136.55049    -0.00000    178.98870    -165.85701    -1.01130    -165.85701    -1.01130    0.00000    -1.01130
455670604.52658    -0.00000    178.98677    -165.79097    -1.01323    -165.79097    -1.01323    -0.00000    -1.01323
456441374.06233    0.00000    178.98484    -165.72491    -1.01516    -165.72491    -1.01516    -0.00000    -1.01516
457213447.35933    0.00000    178.98291    -165.65882    -1.01709    -165.65882    -1.01709    -0.00000    -1.01709
457986826.62291    -0.00000    178.98097    -165.59270    -1.01903    -165.59270    -1.01903    0.00000    -1.01903
458761514.06210    0.00000    178.97903    -165.52655    -1.02097    -165.52655    -1.02097    -0.00000    -1.02097
459537511.88970    0.00000    178.97709    -165.46038    -1.02292    -165.46038    -1.02292    0.00000    -1.02292
460314822.32223    0.00000    178.97513    -165.39418    -1.02487    -165.39418    -1.02487    0.00000    -1.02487
461093447.57999    0.00000    178.97318    -165.32795    -1.02682    -165.32795    -1.02682    -0.00000    -1.02682
461873389.88699    0.00000    178.97122    -165.26170    -1.02878    -165.26170    -1.02878    0.00000    -1.02878
