! rf-tools.com
! Date: Thu Jan 30 2020 10:54:43 GMT+0000 (格林尼治标准时间)
# Hz S DB R 50.00
!Frequency        S11 dB       S11 Deg       S21 dB      S21 Deg      S12 dB      S12 Deg      S22 dB       S22 Deg      
347119048.27170    0.00000    179.39024    -229.20501    89.39024    -229.20501    89.39024    0.00000    179.39024
347706202.20489    0.00000    179.38914    -229.12642    89.38914    -229.12642    89.38914    0.00000    179.38914
348294349.31245    -0.00000    179.38803    -229.04781    89.38803    -229.04781    89.38803    -0.00000    179.38803
348883491.27433    0.00000    179.38692    -228.96918    89.38692    -228.96918    89.38692    0.00000    179.38692
349473629.77335    0.00000    179.38581    -228.89054    89.38581    -228.89054    89.38581    0.00000    179.38581
350064766.49514    -0.00000    179.38470    -228.81187    89.38470    -228.81187    89.38470    -0.00000    179.38470
350656903.12821    0.00000    179.38358    -228.73319    89.38358    -228.73319    89.38358    0.00000    179.38358
351250041.36392    0.00000    179.38246    -228.65448    89.38246    -228.65448    89.38246    0.00000    179.38246
351844182.89648    -0.00000    179.38134    -228.57576    89.38134    -228.57576    89.38134    -0.00000    179.38134
352439329.42297    0.00000    179.38022    -228.49702    89.38022    -228.49702    89.38022    0.00000    179.38022
353035482.64334    0.00000    179.37909    -228.41826    89.37909    -228.41826    89.37909    0.00000    179.37909
353632644.26044    0.00000    179.37797    -228.33949    89.37797    -228.33949    89.37797    0.00000    179.37797
354230815.97995    0.00000    179.37684    -228.26069    89.37684    -228.26069    89.37684    0.00000    179.37684
354829999.51049    0.00000    179.37570    -228.18188    89.37570    -228.18188    89.37570    0.00000    179.37570
355430196.56353    -0.00000    179.37457    -228.10304    89.37457    -228.10304    89.37457    -0.00000    179.37457
356031408.85345    -0.00000    179.37343    -228.02419    89.37343    -228.02419    89.37343    -0.00000    179.37343
356633638.09753    -0.00000    179.37229    -227.94532    89.37229    -227.94532    89.37229    -0.00000    179.37229
357236886.01596    -0.00000    179.37115    -227.86643    89.37115    -227.86643    89.37115    -0.00000    179.37115
357841154.33182    -0.00000    179.37001    -227.78751    89.37001    -227.78751    89.37001    -0.00000    179.37001
358446444.77114    0.00000    179.36886    -227.70858    89.36886    -227.70858    89.36886    0.00000    179.36886
359052759.06283    0.00000    179.36772    -227.62963    89.36772    -227.62963    89.36772    0.00000    179.36772
359660098.93875    -0.00000    179.36656    -227.55067    89.36656    -227.55067    89.36656    -0.00000    179.36656
360268466.13368    0.00000    179.36541    -227.47168    89.36541    -227.47168    89.36541    0.00000    179.36541
360877862.38533    0.00000    179.36426    -227.39267    89.36426    -227.39267    89.36426    0.00000    179.36426
361488289.43437    0.00000    179.36310    -227.31364    89.36310    -227.31364    89.36310    0.00000    179.36310
362099749.02438    0.00000    179.36194    -227.23459    89.36194    -227.23459    89.36194    0.00000    179.36194
362712242.90193    0.00000    179.36078    -227.15552    89.36078    -227.15552    89.36078    0.00000    179.36078
363325772.81651    0.00000    179.35961    -227.07644    89.35961    -227.07644    89.35961    0.00000    179.35961
363940340.52059    -0.00000    179.35844    -226.99733    89.35844    -226.99733    89.35844    -0.00000    179.35844
364555947.76959    -0.00000    179.35727    -226.91820    89.35727    -226.91820    89.35727    -0.00000    179.35727
365172596.32192    0.00000    179.35610    -226.83905    89.35610    -226.83905    89.35610    0.00000    179.35610
365790287.93893    0.00000    179.35493    -226.75989    89.35493    -226.75989    89.35493    0.00000    179.35493
366409024.38499    0.00000    179.35375    -226.68070    89.35375    -226.68070    89.35375    0.00000    179.35375
367028807.42742    -0.00000    179.35257    -226.60149    89.35257    -226.60149    89.35257    -0.00000    179.35257
367649638.83655    0.00000    179.35139    -226.52226    89.35139    -226.52226    89.35139    0.00000    179.35139
368271520.38570    -0.00000    179.35020    -226.44301    89.35020    -226.44301    89.35020    -0.00000    179.35020
368894453.85118    -0.00000    179.34901    -226.36374    89.34901    -226.36374    89.34901    -0.00000    179.34901
369518441.01233    0.00000    179.34782    -226.28445    89.34782    -226.28445    89.34782    0.00000    179.34782
370143483.65147    0.00000    179.34663    -226.20514    89.34663    -226.20514    89.34663    0.00000    179.34663
370769583.55394    0.00000    179.34544    -226.12580    89.34544    -226.12580    89.34544    0.00000    179.34544
371396742.50812    0.00000    179.34424    -226.04645    89.34424    -226.04645    89.34424    0.00000    179.34424
372024962.30540    -0.00000    179.34304    -225.96707    89.34304    -225.96707    89.34304    -0.00000    179.34304
372654244.74020    -0.00000    179.34184    -225.88768    89.34184    -225.88768    89.34184    -0.00000    179.34184
373284591.60998    -0.00000    179.34063    -225.80826    89.34063    -225.80826    89.34063    -0.00000    179.34063
373916004.71524    0.00000    179.33943    -225.72882    89.33943    -225.72882    89.33943    0.00000    179.33943
374548485.85952    -0.00000    179.33822    -225.64936    89.33822    -225.64936    89.33822    -0.00000    179.33822
375182036.84941    -0.00000    179.33701    -225.56988    89.33701    -225.56988    89.33701    -0.00000    179.33701
375816659.49456    0.00000    179.33579    -225.49038    89.33579    -225.49038    89.33579    0.00000    179.33579
376452355.60769    0.00000    179.33457    -225.41086    89.33457    -225.41086    89.33457    0.00000    179.33457
377089127.00458    0.00000    179.33335    -225.33131    89.33335    -225.33131    89.33335    0.00000    179.33335
377726975.50407    0.00000    179.33213    -225.25175    89.33213    -225.25175    89.33213    0.00000    179.33213
378365902.92808    0.00000    179.33091    -225.17216    89.33091    -225.17216    89.33091    0.00000    179.33091
379005911.10163    -0.00000    179.32968    -225.09255    89.32968    -225.09255    89.32968    -0.00000    179.32968
379647001.85281    0.00000    179.32845    -225.01291    89.32845    -225.01291    89.32845    0.00000    179.32845
380289177.01281    0.00000    179.32721    -224.93326    89.32721    -224.93326    89.32721    0.00000    179.32721
380932438.41590    -0.00000    179.32598    -224.85358    89.32598    -224.85358    89.32598    -0.00000    179.32598
381576787.89949    -0.00000    179.32474    -224.77388    89.32474    -224.77388    89.32474    -0.00000    179.32474
382222227.30405    0.00000    179.32350    -224.69416    89.32350    -224.69416    89.32350    0.00000    179.32350
382868758.47320    0.00000    179.32226    -224.61442    89.32226    -224.61442    89.32226    0.00000    179.32226
383516383.25367    -0.00000    179.32101    -224.53465    89.32101    -224.53465    89.32101    -0.00000    179.32101
384165103.49530    0.00000    179.31976    -224.45487    89.31976    -224.45487    89.31976    0.00000    179.31976
384814921.05108    0.00000    179.31851    -224.37506    89.31851    -224.37506    89.31851    0.00000    179.31851
385465837.77711    -0.00000    179.31726    -224.29522    89.31726    -224.29522    89.31726    -0.00000    179.31726
386117855.53266    -0.00000    179.31600    -224.21537    89.31600    -224.21537    89.31600    -0.00000    179.31600
386770976.18011    0.00000    179.31474    -224.13549    89.31474    -224.13549    89.31474    0.00000    179.31474
387425201.58502    0.00000    179.31348    -224.05558    89.31348    -224.05558    89.31348    0.00000    179.31348
388080533.61609    0.00000    179.31222    -223.97566    89.31222    -223.97566    89.31222    0.00000    179.31222
388736974.14519    -0.00000    179.31095    -223.89571    89.31095    -223.89571    89.31095    -0.00000    179.31095
389394525.04734    0.00000    179.30968    -223.81574    89.30968    -223.81574    89.30968    0.00000    179.30968
390053188.20075    0.00000    179.30841    -223.73575    89.30841    -223.73575    89.30841    0.00000    179.30841
390712965.48680    0.00000    179.30713    -223.65573    89.30713    -223.65573    89.30713    0.00000    179.30713
391373858.79005    -0.00000    179.30585    -223.57569    89.30585    -223.57569    89.30585    -0.00000    179.30585
392035869.99825    -0.00000    179.30457    -223.49562    89.30457    -223.49562    89.30457    -0.00000    179.30457
392699001.00235    0.00000    179.30329    -223.41553    89.30329    -223.41553    89.30329    0.00000    179.30329
393363253.69648    0.00000    179.30200    -223.33542    89.30200    -223.33542    89.30200    0.00000    179.30200
394028629.97799    0.00000    179.30071    -223.25529    89.30071    -223.25529    89.30071    0.00000    179.30071
394695131.74743    -0.00000    179.29942    -223.17513    89.29942    -223.17513    89.29942    -0.00000    179.29942
395362760.90858    -0.00000    179.29812    -223.09494    89.29812    -223.09494    89.29812    -0.00000    179.29812
396031519.36842    -0.00000    179.29683    -223.01474    89.29683    -223.01474    89.29683    -0.00000    179.29683
396701409.03717    0.00000    179.29553    -222.93450    89.29553    -222.93450    89.29553    0.00000    179.29553
397372431.82828    -0.00000    179.29422    -222.85425    89.29422    -222.85425    89.29422    -0.00000    179.29422
398044589.65843    0.00000    179.29292    -222.77397    89.29292    -222.77397    89.29292    0.00000    179.29292
398717884.44754    0.00000    179.29161    -222.69366    89.29161    -222.69366    89.29161    0.00000    179.29161
399392318.11879    0.00000    179.29030    -222.61333    89.29030    -222.61333    89.29030    0.00000    179.29030
400067892.59860    -0.00000    179.28898    -222.53298    89.28898    -222.53298    89.28898    -0.00000    179.28898
400744609.81666    0.00000    179.28767    -222.45260    89.28767    -222.45260    89.28767    0.00000    179.28767
401422471.70591    0.00000    179.28635    -222.37220    89.28635    -222.37220    89.28635    0.00000    179.28635
402101480.20259    0.00000    179.28502    -222.29177    89.28502    -222.29177    89.28502    0.00000    179.28502
402781637.24616    -0.00000    179.28370    -222.21132    89.28370    -222.21132    89.28370    -0.00000    179.28370
403462944.77943    0.00000    179.28237    -222.13084    89.28237    -222.13084    89.28237    0.00000    179.28237
404145404.74843    0.00000    179.28104    -222.05034    89.28104    -222.05034    89.28104    0.00000    179.28104
404829019.10252    -0.00000    179.27970    -221.96981    89.27970    -221.96981    89.27970    -0.00000    179.27970
405513789.79436    0.00000    179.27837    -221.88925    89.27837    -221.88925    89.27837    0.00000    179.27837
406199718.77989    0.00000    179.27703    -221.80868    89.27703    -221.80868    89.27703    0.00000    179.27703
406886808.01838    -0.00000    179.27568    -221.72807    89.27568    -221.72807    89.27568    -0.00000    179.27568
407575059.47240    0.00000    179.27434    -221.64744    89.27434    -221.64744    89.27434    0.00000    179.27434
408264475.10785    0.00000    179.27299    -221.56678    89.27299    -221.56678    89.27299    0.00000    179.27299
408955056.89393    0.00000    179.27164    -221.48610    89.27164    -221.48610    89.27164    0.00000    179.27164
409646806.80322    0.00000    179.27028    -221.40540    89.27028    -221.40540    89.27028    0.00000    179.27028
410339726.81159    -0.00000    179.26892    -221.32466    89.26892    -221.32466    89.26892    -0.00000    179.26892
411033818.89827    0.00000    179.26756    -221.24390    89.26756    -221.24390    89.26756    0.00000    179.26756
411729085.04584    0.00000    179.26620    -221.16312    89.26620    -221.16312    89.26620    0.00000    179.26620
412425527.24023    -0.00000    179.26483    -221.08230    89.26483    -221.08230    89.26483    -0.00000    179.26483
413123147.47073    -0.00000    179.26346    -221.00147    89.26346    -221.00147    89.26346    -0.00000    179.26346
413821947.73000    -0.00000    179.26209    -220.92060    89.26209    -220.92060    89.26209    -0.00000    179.26209
414521930.01406    0.00000    179.26071    -220.83971    89.26071    -220.83971    89.26071    0.00000    179.26071
415223096.32231    0.00000    179.25934    -220.75879    89.25934    -220.75879    89.25934    0.00000    179.25934
415925448.65754    -0.00000    179.25795    -220.67785    89.25795    -220.67785    89.25795    -0.00000    179.25795
416628989.02592    0.00000    179.25657    -220.59688    89.25657    -220.59688    89.25657    0.00000    179.25657
417333719.43701    -0.00000    179.25518    -220.51588    89.25518    -220.51588    89.25518    -0.00000    179.25518
418039641.90379    -0.00000    179.25379    -220.43485    89.25379    -220.43485    89.25379    -0.00000    179.25379
418746758.44261    -0.00000    179.25240    -220.35380    89.25240    -220.35380    89.25240    -0.00000    179.25240
419455071.07326    0.00000    179.25100    -220.27272    89.25100    -220.27272    89.25100    0.00000    179.25100
420164581.81893    0.00000    179.24960    -220.19161    89.24960    -220.19161    89.24960    0.00000    179.24960
420875292.70625    -0.00000    179.24820    -220.11047    89.24820    -220.11047    89.24820    -0.00000    179.24820
421587205.76526    -0.00000    179.24679    -220.02931    89.24679    -220.02931    89.24679    -0.00000    179.24679
422300323.02943    -0.00000    179.24538    -219.94812    89.24538    -219.94812    89.24538    -0.00000    179.24538
423014646.53570    -0.00000    179.24397    -219.86690    89.24397    -219.86690    89.24397    -0.00000    179.24397
423730178.32443    -0.00000    179.24255    -219.78566    89.24255    -219.78566    89.24255    -0.00000    179.24255
424446920.43942    0.00000    179.24113    -219.70438    89.24113    -219.70438    89.24113    0.00000    179.24113
425164874.92797    -0.00000    179.23971    -219.62308    89.23971    -219.62308    89.23971    -0.00000    179.23971
425884043.84080    0.00000    179.23829    -219.54175    89.23829    -219.54175    89.23829    0.00000    179.23829
426604429.23212    0.00000    179.23686    -219.46039    89.23686    -219.46039    89.23686    0.00000    179.23686
427326033.15961    0.00000    179.23543    -219.37901    89.23543    -219.37901    89.23543    0.00000    179.23543
428048857.68443    0.00000    179.23399    -219.29759    89.23399    -219.29759    89.23399    0.00000    179.23399
428772904.87123    0.00000    179.23255    -219.21615    89.23255    -219.21615    89.23255    0.00000    179.23255
429498176.78815    -0.00000    179.23111    -219.13467    89.23111    -219.13467    89.23111    -0.00000    179.23111
430224675.50683    -0.00000    179.22967    -219.05317    89.22967    -219.05317    89.22967    -0.00000    179.22967
430952403.10242    -0.00000    179.22822    -218.97164    89.22822    -218.97164    89.22822    -0.00000    179.22822
431681361.65355    0.00000    179.22677    -218.89008    89.22677    -218.89008    89.22677    0.00000    179.22677
432411553.24240    0.00000    179.22532    -218.80849    89.22532    -218.80849    89.22532    0.00000    179.22532
433142979.95467    0.00000    179.22386    -218.72687    89.22386    -218.72687    89.22386    0.00000    179.22386
433875643.87957    0.00000    179.22240    -218.64523    89.22240    -218.64523    89.22240    0.00000    179.22240
434609547.10985    -0.00000    179.22093    -218.56355    89.22093    -218.56355    89.22093    -0.00000    179.22093
435344691.74181    0.00000    179.21947    -218.48184    89.21947    -218.48184    89.21947    0.00000    179.21947
436081079.87528    0.00000    179.21800    -218.40011    89.21800    -218.40011    89.21800    0.00000    179.21800
436818713.61366    0.00000    179.21652    -218.31834    89.21652    -218.31834    89.21652    0.00000    179.21652
437557595.06388    0.00000    179.21505    -218.23654    89.21505    -218.23654    89.21505    0.00000    179.21505
438297726.33648    0.00000    179.21356    -218.15472    89.21356    -218.15472    89.21356    0.00000    179.21356
439039109.54552    0.00000    179.21208    -218.07286    89.21208    -218.07286    89.21208    0.00000    179.21208
439781746.80866    -0.00000    179.21059    -217.99097    89.21059    -217.99097    89.21059    -0.00000    179.21059
440525640.24715    0.00000    179.20910    -217.90906    89.20910    -217.90906    89.20910    0.00000    179.20910
441270791.98581    0.00000    179.20761    -217.82711    89.20761    -217.82711    89.20761    0.00000    179.20761
442017204.15307    -0.00000    179.20611    -217.74513    89.20611    -217.74513    89.20611    -0.00000    179.20611
442764878.88094    -0.00000    179.20461    -217.66312    89.20461    -217.66312    89.20461    -0.00000    179.20461
443513818.30506    -0.00000    179.20311    -217.58108    89.20311    -217.58108    89.20311    -0.00000    179.20311
444264024.56466    0.00000    179.20160    -217.49901    89.20160    -217.49901    89.20160    0.00000    179.20160
445015499.80261    0.00000    179.20009    -217.41691    89.20009    -217.41691    89.20009    0.00000    179.20009
445768246.16540    0.00000    179.19858    -217.33477    89.19858    -217.33477    89.19858    0.00000    179.19858
446522265.80313    -0.00000    179.19706    -217.25261    89.19706    -217.25261    89.19706    -0.00000    179.19706
447277560.86956    -0.00000    179.19554    -217.17041    89.19554    -217.17041    89.19554    -0.00000    179.19554
448034133.52208    0.00000    179.19401    -217.08819    89.19401    -217.08819    89.19401    0.00000    179.19401
448791985.92174    0.00000    179.19248    -217.00593    89.19248    -217.00593    89.19248    0.00000    179.19248
449551120.23324    -0.00000    179.19095    -216.92363    89.19095    -216.92363    89.19095    -0.00000    179.19095
450311538.62494    -0.00000    179.18942    -216.84131    89.18942    -216.84131    89.18942    -0.00000    179.18942
451073243.26886    -0.00000    179.18788    -216.75896    89.18788    -216.75896    89.18788    -0.00000    179.18788
451836236.34072    0.00000    179.18634    -216.67657    89.18634    -216.67657    89.18634    0.00000    179.18634
452600520.01990    0.00000    179.18479    -216.59415    89.18479    -216.59415    89.18479    0.00000    179.18479
453366096.48946    -0.00000    179.18324    -216.51170    89.18324    -216.51170    89.18324    -0.00000    179.18324
454132967.93617    0.00000    179.18169    -216.42921    89.18169    -216.42921    89.18169    0.00000    179.18169
454901136.55049    0.00000    179.18013    -216.34670    89.18013    -216.34670    89.18013    0.00000    179.18013
455670604.52658    0.00000    179.17857    -216.26414    89.17857    -216.26414    89.17857    0.00000    179.17857
456441374.06233    0.00000    179.17701    -216.18156    89.17701    -216.18156    89.17701    0.00000    179.17701
457213447.35933    0.00000    179.17544    -216.09895    89.17544    -216.09895    89.17544    0.00000    179.17544
457986826.62291    -0.00000    179.17387    -216.01630    89.17387    -216.01630    89.17387    -0.00000    179.17387
458761514.06210    -0.00000    179.17230    -215.93361    89.17230    -215.93361    89.17230    -0.00000    179.17230
459537511.88970    0.00000    179.17072    -215.85090    89.17072    -215.85090    89.17072    0.00000    179.17072
460314822.32223    0.00000    179.16914    -215.76815    89.16914    -215.76815    89.16914    0.00000    179.16914
461093447.57999    0.00000    179.16755    -215.68536    89.16755    -215.68536    89.16755    0.00000    179.16755
