! rf-tools.com
! Date: Thu Jan 30 2020 11:12:34 GMT+0000 (格林尼治标准时间)
# Hz S DB R 50.00
!Frequency        S11 dB       S11 Deg       S21 dB      S21 Deg      S12 dB      S12 Deg      S22 dB       S22 Deg      
347119048.27170    -0.00000    178.73422    -72.25256    178.73422    -72.25256    178.73422    -0.00000    -1.26578
347706202.20489    -0.00000    178.73192    -72.22112    178.73192    -72.22112    178.73192    -0.00000    -1.26808
348294349.31245    -0.00000    178.72963    -72.18968    178.72963    -72.18968    178.72963    -0.00000    -1.27037
348883491.27433    -0.00000    178.72732    -72.15823    178.72732    -72.15823    178.72732    -0.00000    -1.27268
349473629.77335    -0.00000    178.72502    -72.12677    178.72502    -72.12677    178.72502    -0.00000    -1.27498
350064766.49514    -0.00000    178.72271    -72.09530    178.72271    -72.09530    178.72271    -0.00000    -1.27729
350656903.12821    -0.00000    178.72039    -72.06383    178.72039    -72.06383    178.72039    -0.00000    -1.27961
351250041.36392    -0.00000    178.71807    -72.03235    178.71807    -72.03235    178.71807    -0.00000    -1.28193
351844182.89648    -0.00000    178.71574    -72.00086    178.71574    -72.00086    178.71574    -0.00000    -1.28426
352439329.42297    -0.00000    178.71341    -71.96937    178.71341    -71.96937    178.71341    -0.00000    -1.28659
353035482.64334    -0.00000    178.71108    -71.93787    178.71108    -71.93787    178.71108    -0.00000    -1.28892
353632644.26044    -0.00000    178.70873    -71.90636    178.70873    -71.90636    178.70873    -0.00000    -1.29127
354230815.97995    -0.00000    178.70639    -71.87484    178.70639    -71.87484    178.70639    -0.00000    -1.29361
354829999.51049    -0.00000    178.70404    -71.84331    178.70404    -71.84331    178.70404    -0.00000    -1.29596
355430196.56353    -0.00000    178.70168    -71.81178    178.70168    -71.81178    178.70168    -0.00000    -1.29832
356031408.85345    -0.00000    178.69932    -71.78024    178.69932    -71.78024    178.69932    -0.00000    -1.30068
356633638.09753    -0.00000    178.69696    -71.74869    178.69696    -71.74869    178.69696    -0.00000    -1.30304
357236886.01596    -0.00000    178.69459    -71.71713    178.69459    -71.71713    178.69459    -0.00000    -1.30541
357841154.33182    -0.00000    178.69222    -71.68557    178.69222    -71.68557    178.69222    -0.00000    -1.30778
358446444.77114    -0.00000    178.68984    -71.65400    178.68984    -71.65400    178.68984    -0.00000    -1.31016
359052759.06283    -0.00000    178.68745    -71.62242    178.68745    -71.62242    178.68745    -0.00000    -1.31255
359660098.93875    -0.00000    178.68506    -71.59083    178.68506    -71.59083    178.68506    -0.00000    -1.31494
360268466.13368    -0.00000    178.68267    -71.55924    178.68267    -71.55924    178.68267    -0.00000    -1.31733
360877862.38533    -0.00000    178.68027    -71.52764    178.68027    -71.52764    178.68027    -0.00000    -1.31973
361488289.43437    -0.00000    178.67787    -71.49602    178.67787    -71.49602    178.67787    -0.00000    -1.32213
362099749.02438    -0.00000    178.67546    -71.46441    178.67546    -71.46441    178.67546    -0.00000    -1.32454
362712242.90193    -0.00000    178.67304    -71.43278    178.67304    -71.43278    178.67304    -0.00000    -1.32696
363325772.81651    -0.00000    178.67062    -71.40115    178.67062    -71.40115    178.67062    -0.00000    -1.32938
363940340.52059    -0.00000    178.66820    -71.36950    178.66820    -71.36950    178.66820    -0.00000    -1.33180
364555947.76959    -0.00000    178.66577    -71.33785    178.66577    -71.33785    178.66577    -0.00000    -1.33423
365172596.32192    -0.00000    178.66334    -71.30619    178.66334    -71.30619    178.66334    -0.00000    -1.33666
365790287.93893    -0.00000    178.66090    -71.27453    178.66090    -71.27453    178.66090    -0.00000    -1.33910
366409024.38499    -0.00000    178.65845    -71.24285    178.65845    -71.24285    178.65845    -0.00000    -1.34155
367028807.42742    -0.00000    178.65600    -71.21117    178.65600    -71.21117    178.65600    -0.00000    -1.34400
367649638.83655    -0.00000    178.65355    -71.17948    178.65355    -71.17948    178.65355    -0.00000    -1.34645
368271520.38570    -0.00000    178.65109    -71.14778    178.65109    -71.14778    178.65109    -0.00000    -1.34891
368894453.85118    -0.00000    178.64862    -71.11607    178.64862    -71.11607    178.64862    -0.00000    -1.35138
369518441.01233    -0.00000    178.64615    -71.08436    178.64615    -71.08436    178.64615    -0.00000    -1.35385
370143483.65147    -0.00000    178.64368    -71.05263    178.64368    -71.05263    178.64368    -0.00000    -1.35632
370769583.55394    -0.00000    178.64120    -71.02090    178.64120    -71.02090    178.64120    -0.00000    -1.35880
371396742.50812    -0.00000    178.63871    -70.98916    178.63871    -70.98916    178.63871    -0.00000    -1.36129
372024962.30540    -0.00000    178.63622    -70.95741    178.63622    -70.95741    178.63622    -0.00000    -1.36378
372654244.74020    -0.00000    178.63373    -70.92565    178.63373    -70.92565    178.63373    -0.00000    -1.36627
373284591.60998    -0.00000    178.63123    -70.89389    178.63123    -70.89389    178.63123    -0.00000    -1.36877
373916004.71524    -0.00000    178.62872    -70.86211    178.62872    -70.86211    178.62872    -0.00000    -1.37128
374548485.85952    -0.00000    178.62621    -70.83033    178.62621    -70.83033    178.62621    -0.00000    -1.37379
375182036.84941    -0.00000    178.62369    -70.79854    178.62369    -70.79854    178.62369    -0.00000    -1.37631
375816659.49456    -0.00000    178.62117    -70.76674    178.62117    -70.76674    178.62117    -0.00000    -1.37883
376452355.60769    -0.00000    178.61864    -70.73493    178.61864    -70.73493    178.61864    -0.00000    -1.38136
377089127.00458    -0.00000    178.61611    -70.70311    178.61611    -70.70311    178.61611    -0.00000    -1.38389
377726975.50407    -0.00000    178.61357    -70.67128    178.61357    -70.67128    178.61357    -0.00000    -1.38643
378365902.92808    -0.00000    178.61103    -70.63945    178.61103    -70.63945    178.61103    -0.00000    -1.38897
379005911.10163    -0.00000    178.60848    -70.60761    178.60848    -70.60761    178.60848    -0.00000    -1.39152
379647001.85281    -0.00000    178.60592    -70.57575    178.60592    -70.57575    178.60592    -0.00000    -1.39408
380289177.01281    -0.00000    178.60336    -70.54389    178.60336    -70.54389    178.60336    -0.00000    -1.39664
380932438.41590    -0.00000    178.60080    -70.51202    178.60080    -70.51202    178.60080    -0.00000    -1.39920
381576787.89949    -0.00000    178.59823    -70.48014    178.59823    -70.48014    178.59823    -0.00000    -1.40177
382222227.30405    -0.00000    178.59565    -70.44826    178.59565    -70.44826    178.59565    -0.00000    -1.40435
382868758.47320    -0.00000    178.59307    -70.41636    178.59307    -70.41636    178.59307    -0.00000    -1.40693
383516383.25367    -0.00000    178.59048    -70.38445    178.59048    -70.38445    178.59048    -0.00000    -1.40952
384165103.49530    -0.00000    178.58789    -70.35254    178.58789    -70.35254    178.58789    -0.00000    -1.41211
384814921.05108    -0.00000    178.58529    -70.32062    178.58529    -70.32062    178.58529    -0.00000    -1.41471
385465837.77711    -0.00000    178.58269    -70.28868    178.58269    -70.28868    178.58269    -0.00000    -1.41731
386117855.53266    -0.00000    178.58008    -70.25674    178.58008    -70.25674    178.58008    -0.00000    -1.41992
386770976.18011    -0.00000    178.57747    -70.22479    178.57747    -70.22479    178.57747    -0.00000    -1.42253
387425201.58502    -0.00000    178.57485    -70.19283    178.57485    -70.19283    178.57485    -0.00000    -1.42515
388080533.61609    -0.00000    178.57222    -70.16086    178.57222    -70.16086    178.57222    -0.00000    -1.42778
388736974.14519    -0.00000    178.56959    -70.12888    178.56959    -70.12888    178.56959    -0.00000    -1.43041
389394525.04734    -0.00000    178.56695    -70.09690    178.56695    -70.09690    178.56695    -0.00000    -1.43305
390053188.20075    -0.00000    178.56431    -70.06490    178.56431    -70.06490    178.56431    -0.00000    -1.43569
390712965.48680    -0.00000    178.56166    -70.03289    178.56166    -70.03289    178.56166    -0.00000    -1.43834
391373858.79005    -0.00000    178.55901    -70.00088    178.55901    -70.00088    178.55901    -0.00000    -1.44099
392035869.99825    -0.00000    178.55635    -69.96885    178.55635    -69.96885    178.55635    -0.00000    -1.44365
392699001.00235    -0.00000    178.55368    -69.93682    178.55368    -69.93682    178.55368    -0.00000    -1.44632
393363253.69648    -0.00000    178.55101    -69.90477    178.55101    -69.90477    178.55101    -0.00000    -1.44899
394028629.97799    -0.00000    178.54834    -69.87272    178.54834    -69.87272    178.54834    -0.00000    -1.45166
394695131.74743    -0.00000    178.54565    -69.84066    178.54565    -69.84066    178.54565    -0.00000    -1.45435
395362760.90858    -0.00000    178.54297    -69.80858    178.54297    -69.80858    178.54297    -0.00000    -1.45703
396031519.36842    -0.00000    178.54027    -69.77650    178.54027    -69.77650    178.54027    -0.00000    -1.45973
396701409.03717    -0.00000    178.53757    -69.74441    178.53757    -69.74441    178.53757    -0.00000    -1.46243
397372431.82828    -0.00000    178.53487    -69.71231    178.53487    -69.71231    178.53487    -0.00000    -1.46513
398044589.65843    -0.00000    178.53215    -69.68020    178.53215    -69.68020    178.53215    -0.00000    -1.46785
398717884.44754    -0.00000    178.52944    -69.64808    178.52944    -69.64808    178.52944    -0.00000    -1.47056
399392318.11879    -0.00000    178.52671    -69.61594    178.52671    -69.61594    178.52671    -0.00000    -1.47329
400067892.59860    -0.00000    178.52399    -69.58380    178.52399    -69.58380    178.52399    -0.00000    -1.47601
400744609.81666    -0.00000    178.52125    -69.55165    178.52125    -69.55165    178.52125    -0.00000    -1.47875
401422471.70591    -0.00000    178.51851    -69.51949    178.51851    -69.51949    178.51851    -0.00000    -1.48149
402101480.20259    -0.00000    178.51576    -69.48732    178.51576    -69.48732    178.51576    -0.00000    -1.48424
402781637.24616    -0.00000    178.51301    -69.45514    178.51301    -69.45514    178.51301    -0.00000    -1.48699
403462944.77943    -0.00000    178.51025    -69.42295    178.51025    -69.42295    178.51025    -0.00000    -1.48975
404145404.74843    -0.00000    178.50749    -69.39075    178.50749    -69.39075    178.50749    -0.00000    -1.49251
404829019.10252    -0.00000    178.50472    -69.35854    178.50472    -69.35854    178.50472    -0.00000    -1.49528
405513789.79436    -0.00000    178.50194    -69.32632    178.50194    -69.32632    178.50194    -0.00000    -1.49806
406199718.77989    -0.00000    178.49916    -69.29409    178.49916    -69.29409    178.49916    -0.00000    -1.50084
406886808.01838    -0.00000    178.49637    -69.26185    178.49637    -69.26185    178.49637    -0.00000    -1.50363
407575059.47240    -0.00000    178.49357    -69.22960    178.49357    -69.22960    178.49357    -0.00000    -1.50643
408264475.10785    -0.00000    178.49077    -69.19734    178.49077    -69.19734    178.49077    -0.00000    -1.50923
408955056.89393    -0.00000    178.48797    -69.16506    178.48797    -69.16506    178.48797    -0.00000    -1.51203
409646806.80322    -0.00000    178.48515    -69.13278    178.48515    -69.13278    178.48515    -0.00000    -1.51485
410339726.81159    -0.00000    178.48233    -69.10049    178.48233    -69.10049    178.48233    -0.00000    -1.51767
411033818.89827    -0.00000    178.47951    -69.06819    178.47951    -69.06819    178.47951    -0.00000    -1.52049
411729085.04584    -0.00000    178.47668    -69.03587    178.47668    -69.03587    178.47668    -0.00000    -1.52332
412425527.24023    -0.00000    178.47384    -69.00355    178.47384    -69.00355    178.47384    -0.00000    -1.52616
413123147.47073    -0.00000    178.47100    -68.97121    178.47100    -68.97121    178.47100    -0.00000    -1.52900
413821947.73000    -0.00000    178.46815    -68.93887    178.46815    -68.93887    178.46815    -0.00000    -1.53185
414521930.01406    -0.00000    178.46529    -68.90651    178.46529    -68.90651    178.46529    -0.00000    -1.53471
415223096.32231    -0.00000    178.46243    -68.87415    178.46243    -68.87415    178.46243    -0.00000    -1.53757
415925448.65754    -0.00000    178.45956    -68.84177    178.45956    -68.84177    178.45956    -0.00000    -1.54044
416628989.02592    -0.00000    178.45668    -68.80938    178.45668    -68.80938    178.45668    -0.00000    -1.54332
417333719.43701    -0.00000    178.45380    -68.77698    178.45380    -68.77698    178.45380    -0.00000    -1.54620
418039641.90379    -0.00000    178.45091    -68.74457    178.45091    -68.74457    178.45091    -0.00000    -1.54909
418746758.44261    -0.00000    178.44802    -68.71215    178.44802    -68.71215    178.44802    -0.00000    -1.55198
419455071.07326    -0.00000    178.44512    -68.67972    178.44512    -68.67972    178.44512    -0.00000    -1.55488
420164581.81893    -0.00000    178.44221    -68.64728    178.44221    -68.64728    178.44221    -0.00000    -1.55779
420875292.70625    -0.00000    178.43930    -68.61483    178.43930    -68.61483    178.43930    -0.00000    -1.56070
421587205.76526    -0.00000    178.43638    -68.58236    178.43638    -68.58236    178.43638    -0.00000    -1.56362
422300323.02943    -0.00000    178.43345    -68.54989    178.43345    -68.54989    178.43345    -0.00000    -1.56655
423014646.53570    -0.00000    178.43052    -68.51740    178.43052    -68.51740    178.43052    -0.00000    -1.56948
423730178.32443    -0.00000    178.42758    -68.48491    178.42758    -68.48491    178.42758    -0.00000    -1.57242
424446920.43942    -0.00000    178.42463    -68.45240    178.42463    -68.45240    178.42463    -0.00000    -1.57537
425164874.92797    -0.00000    178.42168    -68.41988    178.42168    -68.41988    178.42168    -0.00000    -1.57832
425884043.84080    -0.00000    178.41872    -68.38735    178.41872    -68.38735    178.41872    -0.00000    -1.58128
426604429.23212    -0.00000    178.41575    -68.35480    178.41575    -68.35480    178.41575    -0.00000    -1.58425
427326033.15961    -0.00000    178.41278    -68.32225    178.41278    -68.32225    178.41278    -0.00000    -1.58722
428048857.68443    -0.00000    178.40980    -68.28968    178.40980    -68.28968    178.40980    -0.00000    -1.59020
428772904.87123    -0.00000    178.40682    -68.25711    178.40682    -68.25711    178.40682    -0.00000    -1.59318
429498176.78815    -0.00000    178.40382    -68.22452    178.40382    -68.22452    178.40382    -0.00000    -1.59618
430224675.50683    -0.00000    178.40082    -68.19192    178.40082    -68.19192    178.40082    -0.00000    -1.59918
430952403.10242    -0.00000    178.39782    -68.15931    178.39782    -68.15931    178.39782    -0.00000    -1.60218
431681361.65355    -0.00000    178.39481    -68.12668    178.39481    -68.12668    178.39481    -0.00000    -1.60519
432411553.24240    -0.00000    178.39179    -68.09405    178.39179    -68.09405    178.39179    -0.00000    -1.60821
433142979.95467    -0.00000    178.38876    -68.06140    178.38876    -68.06140    178.38876    -0.00000    -1.61124
433875643.87957    -0.00000    178.38573    -68.02875    178.38573    -68.02875    178.38573    -0.00000    -1.61427
434609547.10985    -0.00000    178.38269    -67.99608    178.38269    -67.99608    178.38269    -0.00000    -1.61731
435344691.74181    -0.00000    178.37964    -67.96339    178.37964    -67.96339    178.37964    -0.00000    -1.62036
436081079.87528    -0.00000    178.37659    -67.93070    178.37659    -67.93070    178.37659    -0.00000    -1.62341
436818713.61366    -0.00000    178.37353    -67.89800    178.37353    -67.89800    178.37353    -0.00000    -1.62647
437557595.06388    -0.00000    178.37046    -67.86528    178.37046    -67.86528    178.37046    -0.00000    -1.62954
438297726.33648    -0.00000    178.36739    -67.83255    178.36739    -67.83255    178.36739    -0.00000    -1.63261
439039109.54552    -0.00000    178.36431    -67.79981    178.36431    -67.79981    178.36431    -0.00000    -1.63569
439781746.80866    -0.00000    178.36122    -67.76705    178.36122    -67.76705    178.36122    -0.00000    -1.63878
440525640.24715    -0.00000    178.35813    -67.73429    178.35813    -67.73429    178.35813    -0.00000    -1.64187
441270791.98581    -0.00000    178.35502    -67.70151    178.35502    -67.70151    178.35502    -0.00000    -1.64498
442017204.15307    -0.00000    178.35192    -67.66872    178.35192    -67.66872    178.35192    -0.00000    -1.64808
442764878.88094    -0.00000    178.34880    -67.63592    178.34880    -67.63592    178.34880    -0.00000    -1.65120
443513818.30506    -0.00000    178.34568    -67.60310    178.34568    -67.60310    178.34568    -0.00000    -1.65432
444264024.56466    -0.00000    178.34255    -67.57027    178.34255    -67.57027    178.34255    -0.00000    -1.65745
445015499.80261    -0.00000    178.33941    -67.53743    178.33941    -67.53743    178.33941    -0.00000    -1.66059
445768246.16540    -0.00000    178.33627    -67.50458    178.33627    -67.50458    178.33627    -0.00000    -1.66373
446522265.80313    -0.00000    178.33311    -67.47172    178.33311    -67.47172    178.33311    -0.00000    -1.66689
447277560.86956    -0.00000    178.32996    -67.43884    178.32996    -67.43884    178.32996    -0.00000    -1.67004
448034133.52208    -0.00000    178.32679    -67.40595    178.32679    -67.40595    178.32679    -0.00000    -1.67321
448791985.92174    -0.00000    178.32362    -67.37305    178.32362    -67.37305    178.32362    -0.00000    -1.67638
449551120.23324    -0.00000    178.32044    -67.34013    178.32044    -67.34013    178.32044    -0.00000    -1.67956
450311538.62494    -0.00000    178.31725    -67.30720    178.31725    -67.30720    178.31725    -0.00000    -1.68275
451073243.26886    -0.00000    178.31405    -67.27426    178.31405    -67.27426    178.31405    -0.00000    -1.68595
451836236.34072    -0.00000    178.31085    -67.24131    178.31085    -67.24131    178.31085    -0.00000    -1.68915
452600520.01990    -0.00000    178.30764    -67.20834    178.30764    -67.20834    178.30764    -0.00000    -1.69236
453366096.48946    -0.00000    178.30443    -67.17536    178.30443    -67.17536    178.30443    -0.00000    -1.69557
454132967.93617    -0.00000    178.30120    -67.14237    178.30120    -67.14237    178.30120    -0.00000    -1.69880
454901136.55049    -0.00000    178.29797    -67.10936    178.29797    -67.10936    178.29797    -0.00000    -1.70203
455670604.52658    -0.00000    178.29473    -67.07634    178.29473    -67.07634    178.29473    -0.00000    -1.70527
456441374.06233    -0.00000    178.29148    -67.04331    178.29148    -67.04331    178.29148    -0.00000    -1.70852
457213447.35933    -0.00000    178.28823    -67.01027    178.28823    -67.01027    178.28823    -0.00000    -1.71177
457986826.62291    -0.00000    178.28497    -66.97721    178.28497    -66.97721    178.28497    -0.00000    -1.71503
458761514.06210    -0.00000    178.28170    -66.94414    178.28170    -66.94414    178.28170    -0.00000    -1.71830
459537511.88970    -0.00000    178.27842    -66.91105    178.27842    -66.91105    178.27842    -0.00000    -1.72158
460314822.32223    -0.00000    178.27514    -66.87795    178.27514    -66.87795    178.27514    -0.00000    -1.72486
461093447.57999    -0.00000    178.27185    -66.84484    178.27185    -66.84484    178.27185    -0.00000    -1.72815
