! rf-tools.com
! Date: Thu Jan 30 2020 11:39:51 GMT+0000 (格林尼治标准时间)
# Hz S DB R 50.00
!Frequency        S11 dB       S11 Deg       S21 dB      S21 Deg      S12 dB      S12 Deg      S22 dB       S22 Deg      
600000.00000    -0.00000    179.65077    -85.09751    89.65077    -85.09751    89.65077    -0.00000    179.65077
604438.08460    -0.00000    179.64818    -85.03350    89.64818    -85.03350    89.64818    -0.00000    179.64818
608908.99685    -0.00000    179.64558    -84.96950    89.64558    -84.96950    89.64558    -0.00000    179.64558
613412.97959    -0.00000    179.64296    -84.90549    89.64296    -84.90549    89.64296    -0.00000    179.64296
617950.27742    -0.00000    179.64032    -84.84149    89.64032    -84.84149    89.64032    -0.00000    179.64032
622521.13676    -0.00000    179.63766    -84.77748    89.63766    -84.77748    89.63766    -0.00000    179.63766
627125.80588    -0.00000    179.63498    -84.71348    89.63498    -84.71348    89.63498    -0.00000    179.63498
631764.53485    -0.00000    179.63228    -84.64947    89.63228    -84.64947    89.63228    -0.00000    179.63228
636437.57560    -0.00000    179.62956    -84.58547    89.62956    -84.58547    89.62956    -0.00000    179.62956
641145.18194    -0.00000    179.62682    -84.52147    89.62682    -84.52147    89.62682    -0.00000    179.62682
645887.60953    -0.00000    179.62406    -84.45746    89.62406    -84.45746    89.62406    -0.00000    179.62406
650665.11595    -0.00000    179.62128    -84.39346    89.62128    -84.39346    89.62128    -0.00000    179.62128
655477.96067    -0.00000    179.61848    -84.32945    89.61848    -84.32945    89.61848    -0.00000    179.61848
660326.40507    -0.00000    179.61565    -84.26545    89.61565    -84.26545    89.61565    -0.00000    179.61565
665210.71248    -0.00000    179.61281    -84.20145    89.61281    -84.20145    89.61281    -0.00000    179.61281
670131.14818    -0.00000    179.60995    -84.13744    89.60995    -84.13744    89.60995    -0.00000    179.60995
675087.97939    -0.00000    179.60706    -84.07344    89.60706    -84.07344    89.60706    -0.00000    179.60706
680081.47533    -0.00000    179.60415    -84.00943    89.60415    -84.00943    89.60415    -0.00000    179.60415
685111.90720    -0.00000    179.60123    -83.94543    89.60123    -83.94543    89.60123    -0.00000    179.60123
690179.54821    -0.00000    179.59828    -83.88143    89.59828    -83.88143    89.59828    -0.00000    179.59828
695284.67358    -0.00000    179.59531    -83.81743    89.59531    -83.81743    89.59531    -0.00000    179.59531
700427.56058    -0.00000    179.59231    -83.75342    89.59231    -83.75342    89.59231    -0.00000    179.59231
705608.48853    -0.00000    179.58930    -83.68942    89.58930    -83.68942    89.58930    -0.00000    179.58930
710827.73880    -0.00000    179.58626    -83.62542    89.58626    -83.62542    89.58626    -0.00000    179.58626
716085.59487    -0.00000    179.58320    -83.56141    89.58320    -83.56141    89.58320    -0.00000    179.58320
721382.34228    -0.00000    179.58012    -83.49741    89.58012    -83.49741    89.58012    -0.00000    179.58012
726718.26872    -0.00000    179.57701    -83.43341    89.57701    -83.43341    89.57701    -0.00000    179.57701
732093.66398    -0.00000    179.57388    -83.36941    89.57388    -83.36941    89.57388    -0.00000    179.57388
737508.82000    -0.00000    179.57073    -83.30541    89.57073    -83.30541    89.57073    -0.00000    179.57073
742964.03090    -0.00000    179.56755    -83.24140    89.56755    -83.24140    89.56755    -0.00000    179.56755
748459.59293    -0.00000    179.56435    -83.17740    89.56435    -83.17740    89.56435    -0.00000    179.56435
753995.80459    -0.00000    179.56113    -83.11340    89.56113    -83.11340    89.56113    -0.00000    179.56113
759572.96653    -0.00000    179.55789    -83.04940    89.55789    -83.04940    89.55789    -0.00000    179.55789
765191.38167    -0.00000    179.55462    -82.98540    89.55462    -82.98540    89.55462    -0.00000    179.55462
770851.35515    -0.00000    179.55132    -82.92140    89.55132    -82.92140    89.55132    -0.00000    179.55132
776553.19436    -0.00000    179.54800    -82.85740    89.54800    -82.85740    89.54800    -0.00000    179.54800
782297.20898    -0.00000    179.54466    -82.79340    89.54466    -82.79340    89.54466    -0.00000    179.54466
788083.71097    -0.00000    179.54129    -82.72939    89.54129    -82.72939    89.54129    -0.00000    179.54129
793913.01460    -0.00000    179.53790    -82.66539    89.53790    -82.66539    89.53790    -0.00000    179.53790
799785.43647    -0.00000    179.53448    -82.60139    89.53448    -82.60139    89.53448    -0.00000    179.53448
805701.29552    -0.00000    179.53104    -82.53739    89.53104    -82.53739    89.53104    -0.00000    179.53104
811660.91303    -0.00000    179.52757    -82.47339    89.52757    -82.47339    89.52757    -0.00000    179.52757
817664.61270    -0.00000    179.52407    -82.40939    89.52407    -82.40939    89.52407    -0.00000    179.52407
823712.72057    -0.00000    179.52055    -82.34539    89.52055    -82.34539    89.52055    -0.00000    179.52055
829805.56513    -0.00000    179.51701    -82.28139    89.51701    -82.28139    89.51701    -0.00000    179.51701
835943.47730    -0.00000    179.51343    -82.21740    89.51343    -82.21740    89.51343    -0.00000    179.51343
842126.79042    -0.00000    179.50983    -82.15340    89.50983    -82.15340    89.50983    -0.00000    179.50983
848355.84031    -0.00000    179.50621    -82.08940    89.50621    -82.08940    89.50621    -0.00000    179.50621
854630.96529    -0.00000    179.50256    -82.02540    89.50256    -82.02540    89.50256    -0.00000    179.50256
860952.50617    -0.00000    179.49888    -81.96140    89.49888    -81.96140    89.49888    -0.00000    179.49888
867320.80626    -0.00000    179.49517    -81.89740    89.49517    -81.89740    89.49517    -0.00000    179.49517
873736.21145    -0.00000    179.49144    -81.83340    89.49144    -81.83340    89.49144    -0.00000    179.49144
880199.07015    -0.00000    179.48767    -81.76941    89.48767    -81.76941    89.48767    -0.00000    179.48767
886709.73338    -0.00000    179.48388    -81.70541    89.48388    -81.70541    89.48388    -0.00000    179.48388
893268.55473    -0.00000    179.48007    -81.64141    89.48007    -81.64141    89.48007    -0.00000    179.48007
899875.89042    -0.00000    179.47622    -81.57741    89.47622    -81.57741    89.47622    -0.00000    179.47622
906532.09931    -0.00000    179.47235    -81.51342    89.47235    -81.51342    89.47235    -0.00000    179.47235
913237.54289    -0.00000    179.46844    -81.44942    89.46844    -81.44942    89.46844    -0.00000    179.46844
919992.58534    -0.00000    179.46451    -81.38542    89.46451    -81.38542    89.46451    -0.00000    179.46451
926797.59355    -0.00000    179.46055    -81.32143    89.46055    -81.32143    89.46055    -0.00000    179.46055
933652.93709    -0.00000    179.45656    -81.25743    89.45656    -81.25743    89.45656    -0.00000    179.45656
940558.98829    -0.00000    179.45254    -81.19343    89.45254    -81.19343    89.45254    -0.00000    179.45254
947516.12222    -0.00000    179.44849    -81.12944    89.44849    -81.12944    89.44849    -0.00000    179.44849
954524.71674    -0.00000    179.44441    -81.06544    89.44441    -81.06544    89.44441    -0.00000    179.44441
961585.15248    -0.00000    179.44030    -81.00145    89.44030    -81.00145    89.44030    -0.00000    179.44030
968697.81290    -0.00000    179.43616    -80.93745    89.43616    -80.93745    89.43616    -0.00000    179.43616
975863.08431    -0.00000    179.43199    -80.87346    89.43199    -80.87346    89.43199    -0.00000    179.43199
983081.35585    -0.00000    179.42779    -80.80946    89.42779    -80.80946    89.42779    -0.00000    179.42779
990353.01955    -0.00000    179.42356    -80.74547    89.42356    -80.74547    89.42356    -0.00000    179.42356
997678.47036    -0.00000    179.41929    -80.68147    89.41929    -80.68147    89.41929    -0.00000    179.41929
1005058.10611    -0.00000    179.41500    -80.61748    89.41500    -80.61748    89.41500    -0.00000    179.41500
1012492.32762    -0.00000    179.41067    -80.55349    89.41067    -80.55349    89.41067    -0.00000    179.41067
1019981.53862    -0.00000    179.40631    -80.48949    89.40631    -80.48949    89.40631    -0.00000    179.40631
1027526.14589    -0.00000    179.40192    -80.42550    89.40192    -80.42550    89.40192    -0.00000    179.40192
1035126.55916    -0.00000    179.39750    -80.36151    89.39750    -80.36151    89.39750    -0.00000    179.39750
1042783.19122    -0.00000    179.39304    -80.29751    89.39304    -80.29751    89.39304    -0.00000    179.39304
1050496.45792    -0.00000    179.38855    -80.23352    89.38855    -80.23352    89.38855    -0.00000    179.38855
1058266.77817    -0.00000    179.38403    -80.16953    89.38403    -80.16953    89.38403    -0.00000    179.38403
1066094.57399    -0.00000    179.37947    -80.10554    89.37947    -80.10554    89.37947    -0.00000    179.37947
1073980.27050    -0.00000    179.37488    -80.04155    89.37488    -80.04155    89.37488    -0.00000    179.37488
1081924.29600    -0.00000    179.37026    -79.97755    89.37026    -79.97755    89.37026    -0.00000    179.37026
1089927.08192    -0.00000    179.36560    -79.91356    89.36560    -79.91356    89.36560    -0.00000    179.36560
1097989.06291    -0.00000    179.36091    -79.84957    89.36091    -79.84957    89.36091    -0.00000    179.36091
1106110.67683    -0.00000    179.35618    -79.78558    89.35618    -79.78558    89.35618    -0.00000    179.35618
1114292.36476    -0.00000    179.35142    -79.72159    89.35142    -79.72159    89.35142    -0.00000    179.35142
1122534.57106    -0.00000    179.34662    -79.65760    89.34662    -79.65760    89.34662    -0.00000    179.34662
1130837.74338    -0.00000    179.34179    -79.59361    89.34179    -79.59361    89.34179    -0.00000    179.34179
1139202.33267    -0.00000    179.33692    -79.52963    89.33692    -79.52963    89.33692    -0.00000    179.33692
1147628.79321    -0.00000    179.33201    -79.46564    89.33201    -79.46564    89.33201    -0.00000    179.33201
1156117.58266    -0.00000    179.32707    -79.40165    89.32707    -79.40165    89.32707    -0.00000    179.32707
1164669.16206    -0.00000    179.32210    -79.33766    89.32210    -79.33766    89.32210    -0.00000    179.32210
1173283.99584    -0.00000    179.31708    -79.27367    89.31708    -79.27367    89.31708    -0.00000    179.31708
1181962.55189    -0.00000    179.31203    -79.20969    89.31203    -79.20969    89.31203    -0.00000    179.31203
1190705.30156    -0.00000    179.30694    -79.14570    89.30694    -79.14570    89.30694    -0.00000    179.30694
1199512.71965    -0.00000    179.30181    -79.08171    89.30181    -79.08171    89.30181    -0.00000    179.30181
1208385.28453    -0.00000    179.29665    -79.01773    89.29665    -79.01773    89.29665    -0.00000    179.29665
1217323.47806    -0.00000    179.29145    -78.95374    89.29145    -78.95374    89.29145    -0.00000    179.29145
1226327.78570    -0.00000    179.28621    -78.88976    89.28621    -78.88976    89.28621    -0.00000    179.28621
1235398.69646    -0.00000    179.28093    -78.82577    89.28093    -78.82577    89.28093    -0.00000    179.28093
1244536.70301    -0.00000    179.27561    -78.76179    89.27561    -78.76179    89.27561    -0.00000    179.27561
1253742.30163    -0.00000    179.27025    -78.69780    89.27025    -78.69780    89.27025    -0.00000    179.27025
1263015.99229    -0.00000    179.26485    -78.63382    89.26485    -78.63382    89.26485    -0.00000    179.26485
1272358.27866    -0.00000    179.25941    -78.56983    89.25941    -78.56983    89.25941    -0.00000    179.25941
1281769.66813    -0.00000    179.25394    -78.50585    89.25394    -78.50585    89.25394    -0.00000    179.25394
1291250.67183    -0.00000    179.24842    -78.44187    89.24842    -78.44187    89.24842    -0.00000    179.24842
1300801.80470    -0.00000    179.24286    -78.37789    89.24286    -78.37789    89.24286    -0.00000    179.24286
1310423.58546    -0.00000    179.23726    -78.31391    89.23726    -78.31391    89.23726    -0.00000    179.23726
1320116.53668    -0.00000    179.23162    -78.24992    89.23162    -78.24992    89.23162    -0.00000    179.23162
1329881.18479    -0.00000    179.22593    -78.18594    89.22593    -78.18594    89.22593    -0.00000    179.22593
1339718.06013    -0.00000    179.22021    -78.12196    89.22021    -78.12196    89.22021    -0.00000    179.22021
1349627.69694    -0.00000    179.21444    -78.05798    89.21444    -78.05798    89.21444    -0.00000    179.21444
1359610.63344    -0.00000    179.20863    -77.99400    89.20863    -77.99400    89.20863    -0.00000    179.20863
1369667.41179    -0.00000    179.20277    -77.93003    89.20277    -77.93003    89.20277    -0.00000    179.20277
1379798.57820    -0.00000    179.19688    -77.86605    89.19688    -77.86605    89.19688    -0.00000    179.19688
1390004.68289    -0.00000    179.19094    -77.80207    89.19094    -77.80207    89.19094    -0.00000    179.19094
1400286.28018    -0.00000    179.18495    -77.73809    89.18495    -77.73809    89.18495    -0.00000    179.18495
1410643.92847    -0.00000    179.17892    -77.67411    89.17892    -77.67411    89.17892    -0.00000    179.17892
1421078.19029    -0.00000    179.17285    -77.61014    89.17285    -77.61014    89.17285    -0.00000    179.17285
1431589.63234    -0.00000    179.16673    -77.54616    89.16673    -77.54616    89.16673    -0.00000    179.16673
1442178.82550    -0.00000    179.16057    -77.48219    89.16057    -77.48219    89.16057    -0.00000    179.16057
1452846.34489    -0.00000    179.15436    -77.41821    89.15436    -77.41821    89.15436    -0.00000    179.15436
1463592.76987    -0.00000    179.14810    -77.35424    89.14810    -77.35424    89.14810    -0.00000    179.14810
1474418.68409    -0.00000    179.14180    -77.29026    89.14180    -77.29026    89.14180    -0.00000    179.14180
1485324.67551    -0.00000    179.13545    -77.22629    89.13545    -77.22629    89.13545    -0.00000    179.13545
1496311.33645    -0.00000    179.12906    -77.16232    89.12906    -77.16232    89.12906    -0.00000    179.12906
1507379.26361    -0.00000    179.12262    -77.09835    89.12262    -77.09835    89.12262    -0.00000    179.12262
1518529.05810    -0.00000    179.11613    -77.03437    89.11613    -77.03437    89.11613    -0.00000    179.11613
1529761.32547    -0.00000    179.10959    -76.97040    89.10959    -76.97040    89.10959    -0.00000    179.10959
1541076.67577    -0.00000    179.10300    -76.90643    89.10300    -76.90643    89.10300    -0.00000    179.10300
1552475.72354    -0.00000    179.09637    -76.84246    89.09637    -76.84246    89.09637    -0.00000    179.09637
1563959.08787    -0.00000    179.08968    -76.77850    89.08968    -76.77850    89.08968    -0.00000    179.08968
1575527.39243    -0.00000    179.08295    -76.71453    89.08295    -76.71453    89.08295    -0.00000    179.08295
1587181.26552    -0.00000    179.07617    -76.65056    89.07617    -76.65056    89.07617    -0.00000    179.07617
1598921.34007    -0.00000    179.06933    -76.58659    89.06933    -76.58659    89.06933    -0.00000    179.06933
1610748.25369    -0.00000    179.06245    -76.52263    89.06245    -76.52263    89.06245    -0.00000    179.06245
1622662.64872    -0.00000    179.05551    -76.45866    89.05551    -76.45866    89.05551    -0.00000    179.05551
1634665.17223    -0.00000    179.04853    -76.39469    89.04853    -76.39469    89.04853    -0.00000    179.04853
1646756.47611    -0.00000    179.04149    -76.33073    89.04149    -76.33073    89.04149    -0.00000    179.04149
1658937.21703    -0.00000    179.03440    -76.26677    89.03440    -76.26677    89.03440    -0.00000    179.03440
1671208.05655    -0.00000    179.02726    -76.20280    89.02726    -76.20280    89.02726    -0.00000    179.02726
1683569.66111    -0.00000    179.02006    -76.13884    89.02006    -76.13884    89.02006    -0.00000    179.02006
1696022.70208    -0.00000    179.01281    -76.07488    89.01281    -76.07488    89.01281    -0.00000    179.01281
1708567.85580    -0.00000    179.00551    -76.01092    89.00551    -76.01092    89.00551    -0.00000    179.00551
1721205.80361    -0.00000    178.99816    -75.94696    88.99816    -75.94696    88.99816    -0.00000    178.99816
1733937.23189    -0.00000    178.99075    -75.88300    88.99075    -75.88300    88.99075    -0.00000    178.99075
1746762.83209    -0.00000    178.98328    -75.81904    88.98328    -75.81904    88.98328    -0.00000    178.98328
1759683.30080    -0.00000    178.97576    -75.75508    88.97576    -75.75508    88.97576    -0.00000    178.97576
1772699.33972    -0.00000    178.96818    -75.69113    88.96818    -75.69113    88.96818    -0.00000    178.96818
1785811.65578    -0.00000    178.96055    -75.62717    88.96055    -75.62717    88.96055    -0.00000    178.96055
1799020.96112    -0.00000    178.95286    -75.56321    88.95286    -75.56321    88.95286    -0.00000    178.95286
1812327.97316    -0.00000    178.94512    -75.49926    88.94512    -75.49926    88.94512    -0.00000    178.94512
1825733.41460    -0.00000    178.93731    -75.43531    88.93731    -75.43531    88.93731    -0.00000    178.93731
1839238.01351    -0.00000    178.92945    -75.37135    88.92945    -75.37135    88.92945    -0.00000    178.92945
1852842.50334    -0.00000    178.92153    -75.30740    88.92153    -75.30740    88.92153    -0.00000    178.92153
1866547.62297    -0.00000    178.91356    -75.24345    88.91356    -75.24345    88.91356    -0.00000    178.91356
1880354.11673    -0.00000    178.90552    -75.17950    88.90552    -75.17950    88.90552    -0.00000    178.90552
1894262.73447    -0.00000    178.89743    -75.11555    88.89743    -75.11555    88.89743    -0.00000    178.89743
1908274.23158    -0.00000    178.88927    -75.05160    88.88927    -75.05160    88.88927    -0.00000    178.88927
1922389.36904    -0.00000    178.88105    -74.98766    88.88105    -74.98766    88.88105    -0.00000    178.88105
1936608.91346    -0.00000    178.87278    -74.92371    88.87278    -74.92371    88.87278    -0.00000    178.87278
1950933.63711    -0.00000    178.86444    -74.85976    88.86444    -74.85976    88.86444    -0.00000    178.86444
1965364.31799    -0.00000    178.85604    -74.79582    88.85604    -74.79582    88.85604    -0.00000    178.85604
1979901.73984    -0.00000    178.84758    -74.73188    88.84758    -74.73188    88.84758    -0.00000    178.84758
1994546.69220    -0.00000    178.83905    -74.66793    88.83905    -74.66793    88.83905    -0.00000    178.83905
2009299.97046    -0.00000    178.83047    -74.60399    88.83047    -74.60399    88.83047    -0.00000    178.83047
2024162.37588    -0.00000    178.82181    -74.54005    88.82181    -74.54005    88.82181    -0.00000    178.82181
2039134.71565    -0.00000    178.81310    -74.47611    88.81310    -74.47611    88.81310    -0.00000    178.81310
2054217.80295    -0.00000    178.80432    -74.41217    88.80432    -74.41217    88.80432    -0.00000    178.80432
2069412.45693    -0.00000    178.79548    -74.34824    88.79548    -74.34824    88.79548    -0.00000    178.79548
2084719.50285    -0.00000    178.78657    -74.28430    88.78657    -74.28430    88.78657    -0.00000    178.78657
2100139.77205    -0.00000    178.77759    -74.22037    88.77759    -74.22037    88.77759    -0.00000    178.77759
2115674.10201    -0.00000    178.76855    -74.15643    88.76855    -74.15643    88.76855    -0.00000    178.76855
2131323.33642    -0.00000    178.75944    -74.09250    88.75944    -74.09250    88.75944    -0.00000    178.75944
2147088.32521    -0.00000    178.75026    -74.02857    88.75026    -74.02857    88.75026    -0.00000    178.75026
